!Agilent Technologies,E5071C,MY46108981,A.11.08
!Date: Sat Oct 19 16:30:12 2019
!Data & Calibration Information:
!Freq	S11:SOLT2(ON)	S21:SOLT2(ON)	S12:SOLT2(ON)	S22:SOLT2(ON)
!PortZ  Port1:50+j0    Port2:50+j0
!Above PortZ is port z conversion or system Z0 setting when saving the data.
!When reading, reference impedance value at option line is always used.
# Hz S RI R 50
200000000	-1.065890e-002	-1.464361e-002	9.117180e-001	-3.900250e-001	9.116479e-001	-3.903891e-001	-9.216151e-003	-1.601521e-002
249499998	-1.635288e-002	-1.509510e-002	8.674933e-001	-4.773482e-001	8.670187e-001	-4.774140e-001	-1.389367e-002	-1.648336e-002
298999996	-2.132480e-002	-1.331107e-002	8.146318e-001	-5.591103e-001	8.142355e-001	-5.589469e-001	-1.883504e-002	-1.564125e-002
348499995	-2.678059e-002	-1.090278e-002	7.551149e-001	-6.359447e-001	7.549014e-001	-6.359699e-001	-2.301539e-002	-1.512757e-002
397999993	-3.127288e-002	-6.505862e-003	6.875654e-001	-7.055390e-001	6.874351e-001	-7.057845e-001	-2.735621e-002	-1.245017e-002
447499991	-3.517911e-002	-1.701813e-003	6.145709e-001	-7.678869e-001	6.147555e-001	-7.685433e-001	-3.051056e-002	-9.578491e-003
496999989	-3.733585e-002	3.074857e-003	5.358438e-001	-8.240999e-001	5.351373e-001	-8.237561e-001	-3.289157e-002	-6.898481e-003
546499988	-3.795881e-002	9.131619e-003	4.522273e-001	-8.709597e-001	4.517333e-001	-8.709320e-001	-3.494938e-002	-3.675318e-003
595999986	-3.826754e-002	1.447532e-002	3.638987e-001	-9.103365e-001	3.641837e-001	-9.099681e-001	-3.660856e-002	-2.384094e-004
645499984	-3.863865e-002	2.061448e-002	2.730710e-001	-9.397461e-001	2.729593e-001	-9.395356e-001	-3.729283e-002	3.985295e-003
694999982	-3.715540e-002	2.533830e-002	1.798199e-001	-9.604290e-001	1.798412e-001	-9.608084e-001	-3.901789e-002	6.874699e-003
744499981	-3.480627e-002	3.114174e-002	8.448954e-002	-9.719594e-001	8.431264e-002	-9.712843e-001	-3.943105e-002	1.131649e-002
793999979	-3.215983e-002	3.517562e-002	-1.042478e-002	-9.745343e-001	-1.066310e-002	-9.742631e-001	-3.883691e-002	1.521777e-002
843499977	-2.887461e-002	3.985390e-002	-1.049380e-001	-9.674782e-001	-1.057508e-001	-9.671081e-001	-3.883931e-002	1.829100e-002
892999975	-2.567783e-002	4.341859e-002	-1.991915e-001	-9.508987e-001	-1.991417e-001	-9.508043e-001	-3.801128e-002	2.289732e-002
942499974	-2.208308e-002	4.717643e-002	-2.896016e-001	-9.256972e-001	-2.902246e-001	-9.253404e-001	-3.684713e-002	2.767572e-002
991999972	-1.700096e-002	4.923256e-002	-3.790515e-001	-8.924696e-001	-3.785679e-001	-8.917964e-001	-3.550463e-002	3.097238e-002
1041499970	-1.274940e-002	5.150176e-002	-4.618767e-001	-8.487795e-001	-4.615570e-001	-8.489426e-001	-3.358794e-002	3.485723e-002
1090999968	-7.904561e-003	5.356327e-002	-5.423104e-001	-8.001605e-001	-5.425958e-001	-7.996160e-001	-3.078582e-002	3.889623e-002
1140499966	-3.817969e-003	5.388264e-002	-6.162314e-001	-7.405943e-001	-6.153066e-001	-7.401812e-001	-2.728058e-002	4.223713e-002
1189999965	7.571395e-004	5.439164e-002	-6.834981e-001	-6.787927e-001	-6.840064e-001	-6.790324e-001	-2.290525e-002	4.547767e-002
1239499963	5.214092e-003	5.358739e-002	-7.472579e-001	-6.047141e-001	-7.454893e-001	-6.043590e-001	-1.910581e-002	4.808876e-002
1288999961	1.016425e-002	5.267272e-002	-7.980667e-001	-5.326551e-001	-7.989184e-001	-5.332073e-001	-1.364868e-002	4.975686e-002
1338499959	1.372440e-002	5.129579e-002	-8.471827e-001	-4.475654e-001	-8.461113e-001	-4.479522e-001	-7.791422e-003	5.154138e-002
1387999958	1.809607e-002	4.902264e-002	-8.826000e-001	-3.667278e-001	-8.830694e-001	-3.671695e-001	-2.342774e-003	5.072425e-002
1437499956	2.107721e-002	4.621956e-002	-9.149333e-001	-2.770847e-001	-9.153040e-001	-2.772773e-001	3.686139e-003	5.013698e-002
1486999954	2.384136e-002	4.338362e-002	-9.331881e-001	-1.889352e-001	-9.338063e-001	-1.890588e-001	9.975223e-003	4.845953e-002
1536499952	2.571543e-002	4.030740e-002	-9.489785e-001	-9.538830e-002	-9.492300e-001	-9.596838e-002	1.484444e-002	4.482476e-002
1585999951	2.688191e-002	3.625113e-002	-9.501681e-001	-6.979513e-003	-9.514587e-001	-6.721189e-003	1.954531e-002	4.068727e-002
1635499949	2.795544e-002	3.311127e-002	-9.470301e-001	8.886841e-002	-9.475683e-001	8.819839e-002	2.306015e-002	3.605028e-002
1684999947	2.753801e-002	2.930619e-002	-9.329563e-001	1.755389e-001	-9.331012e-001	1.771398e-001	2.590563e-002	2.963592e-002
1734499945	2.648890e-002	2.607632e-002	-9.113844e-001	2.679504e-001	-9.105092e-001	2.678648e-001	2.748345e-002	2.312972e-002
1783999944	2.476405e-002	2.255867e-002	-8.794509e-001	3.513007e-001	-8.785690e-001	3.524454e-001	2.708327e-002	1.621191e-002
1833499942	2.232306e-002	2.004284e-002	-8.427311e-001	4.384698e-001	-8.421905e-001	4.382225e-001	2.607126e-002	9.324349e-003
1882999940	1.850106e-002	1.802772e-002	-7.939988e-001	5.129779e-001	-7.921031e-001	5.141166e-001	2.219008e-002	3.073335e-003
1932499938	1.556203e-002	1.663357e-002	-7.412680e-001	5.920289e-001	-7.416705e-001	5.907404e-001	1.748277e-002	-2.689861e-003
1981999936	1.139205e-002	1.672029e-002	-6.788452e-001	6.570311e-001	-6.769103e-001	6.579661e-001	1.103053e-002	-7.403056e-003
2031499935	6.526953e-003	1.776699e-002	-6.115089e-001	7.226395e-001	-6.118381e-001	7.196491e-001	4.164024e-003	-1.080888e-002
2080999933	2.728309e-003	1.973638e-002	-5.378905e-001	7.751809e-001	-5.365482e-001	7.763769e-001	-3.684973e-003	-1.228261e-002
2130499931	-1.652852e-003	2.219728e-002	-4.572536e-001	8.248791e-001	-4.587803e-001	8.211917e-001	-1.303841e-002	-1.214772e-002
2179999929	-5.124286e-003	2.672479e-002	-3.784694e-001	8.636112e-001	-3.770881e-001	8.639677e-001	-2.202157e-002	-9.756521e-003
2229499928	-8.562890e-003	3.170179e-002	-2.882027e-001	8.942052e-001	-2.896730e-001	8.934519e-001	-3.060119e-002	-5.434589e-003
2278999926	-1.083897e-002	3.790218e-002	-2.019804e-001	9.192753e-001	-2.027176e-001	9.153592e-001	-3.792640e-002	8.855287e-004
2328499924	-1.209479e-002	4.451725e-002	-1.098852e-001	9.285908e-001	-1.104639e-001	9.313390e-001	-4.520924e-002	8.899070e-003
2377999922	-1.115749e-002	5.173302e-002	-2.206842e-002	9.371950e-001	-2.361273e-002	9.341346e-001	-5.088408e-002	1.890331e-002
2427499921	-9.431533e-003	6.023009e-002	7.274696e-002	9.286310e-001	7.115485e-002	9.321800e-001	-5.408834e-002	2.897878e-002
2476999919	-5.264944e-003	6.762557e-002	1.544945e-001	9.227011e-001	1.583898e-001	9.194657e-001	-5.461016e-002	4.229910e-002
2526499917	-1.176190e-003	7.572982e-002	2.522312e-001	8.948513e-001	2.465303e-001	8.959275e-001	-5.456601e-002	5.468084e-002
2575999915	5.446304e-003	8.206630e-002	3.275870e-001	8.704443e-001	3.303222e-001	8.687768e-001	-4.907957e-002	6.630501e-002
2625499914	1.288012e-002	8.827874e-002	4.186614e-001	8.330028e-001	4.174145e-001	8.311123e-001	-4.353968e-002	7.945791e-002
2674999912	2.252230e-002	9.162406e-002	4.810450e-001	7.811683e-001	4.782214e-001	7.870201e-001	-3.300426e-002	9.038059e-002
2724499910	3.261647e-002	9.613303e-002	5.764433e-001	7.429324e-001	5.774068e-001	7.330539e-001	-2.225393e-002	1.004931e-001
2773999908	4.422600e-002	9.630655e-002	6.160167e-001	6.692435e-001	6.119531e-001	6.811643e-001	-8.694657e-003	1.058355e-001
2823499906	5.483395e-002	9.794269e-002	7.045252e-001	6.198024e-001	7.054362e-001	6.106398e-001	4.905805e-003	1.120538e-001
2872999905	6.614145e-002	9.545190e-002	7.367330e-001	5.355427e-001	7.314235e-001	5.425219e-001	2.067529e-002	1.139944e-001
2922499903	7.647993e-002	9.297841e-002	8.028419e-001	4.801390e-001	8.092717e-001	4.771159e-001	3.541508e-002	1.142967e-001
2971999901	8.727302e-002	8.680560e-002	8.278391e-001	3.792436e-001	8.176967e-001	3.822747e-001	5.186972e-002	1.097016e-001
3021499899	9.626745e-002	8.087147e-002	8.818770e-001	3.182892e-001	8.886478e-001	3.163484e-001	6.669381e-002	1.041864e-001
3070999898	1.036222e-001	7.008364e-002	8.847713e-001	2.173279e-001	8.774872e-001	2.213065e-001	7.989044e-002	9.315924e-002
3120499896	1.099823e-001	6.127941e-002	9.232600e-001	1.357179e-001	9.240444e-001	1.367743e-001	9.124589e-002	8.089563e-002
3169999894	1.139479e-001	4.938160e-002	9.143872e-001	4.415899e-002	9.148348e-001	4.826843e-002	9.988756e-002	6.657890e-002
3219499892	1.156290e-001	3.956427e-002	9.295799e-001	-3.961365e-002	9.281312e-001	-3.912164e-002	1.056275e-001	5.114853e-002
3268999891	1.159148e-001	2.699284e-002	9.013633e-001	-1.409391e-001	9.055584e-001	-1.363913e-001	1.089171e-001	3.411698e-002
3318499889	1.148516e-001	1.799499e-002	9.127037e-001	-2.159155e-001	9.080881e-001	-2.144654e-001	1.089342e-001	1.875386e-002
3367999887	1.105774e-001	5.584015e-003	8.510826e-001	-3.121162e-001	8.586222e-001	-3.070788e-001	1.043738e-001	4.576560e-004
3417499885	1.056425e-001	-2.227256e-003	8.517549e-001	-3.902736e-001	8.481088e-001	-3.887419e-001	9.775255e-002	-1.490527e-002
3466999884	9.661125e-002	-1.086169e-002	7.783372e-001	-4.730324e-001	7.890925e-001	-4.720166e-001	8.567113e-002	-2.912822e-002
3516499882	8.789884e-002	-1.522861e-002	7.519845e-001	-5.416942e-001	7.484435e-001	-5.379446e-001	7.248704e-002	-3.904979e-002
3565999880	7.647165e-002	-2.034397e-002	6.726705e-001	-6.197231e-001	6.852053e-001	-6.259174e-001	5.581238e-002	-4.748513e-002
3615499878	6.832873e-002	-1.915948e-002	6.289254e-001	-6.737260e-001	6.253191e-001	-6.675410e-001	4.056611e-002	-5.131788e-002
3664999876	5.720730e-002	-1.893175e-002	5.414662e-001	-7.355069e-001	5.520533e-001	-7.451912e-001	2.191525e-002	-5.251922e-002
3714499875	5.001615e-002	-1.462306e-002	4.805506e-001	-7.836590e-001	4.771469e-001	-7.793453e-001	5.600714e-003	-4.886707e-002
3763999873	4.185919e-002	-9.677851e-003	3.926027e-001	-8.255499e-001	4.016997e-001	-8.320919e-001	-1.173686e-002	-4.176130e-002
3813499871	3.710970e-002	-1.484801e-003	3.164875e-001	-8.587790e-001	3.096996e-001	-8.603826e-001	-2.588174e-002	-3.157268e-002
3862999869	3.267233e-002	7.953944e-003	2.229332e-001	-8.830602e-001	2.365786e-001	-8.876322e-001	-3.919800e-002	-1.705455e-002
3912499868	3.171755e-002	1.817456e-002	1.450359e-001	-9.060299e-001	1.325888e-001	-9.052440e-001	-4.739358e-002	-6.219813e-004
3961999866	3.376200e-002	2.942553e-002	4.590590e-002	-9.029240e-001	6.031670e-002	-9.123777e-001	-5.214868e-002	1.862319e-002
4011499864	3.550583e-002	3.996181e-002	-3.398694e-002	-9.188318e-001	-4.670011e-002	-9.136377e-001	-5.280166e-002	3.833705e-002
4060999862	4.423559e-002	5.015412e-002	-1.328036e-001	-8.890293e-001	-1.188301e-001	-8.994449e-001	-4.897945e-002	5.894477e-002
4110499861	5.102600e-002	6.111334e-002	-2.065924e-001	-8.966444e-001	-2.220343e-001	-8.925389e-001	-4.329237e-002	7.777174e-002
4159999859	6.449962e-002	6.559618e-002	-3.062962e-001	-8.357297e-001	-2.881493e-001	-8.490298e-001	-2.854387e-002	9.551298e-002
4209499857	7.753002e-002	7.340516e-002	-3.749300e-001	-8.427327e-001	-3.982982e-001	-8.355728e-001	-1.676557e-002	1.120280e-001
4258999855	9.152646e-002	7.311935e-002	-4.575759e-001	-7.547597e-001	-4.396619e-001	-7.716615e-001	6.276523e-003	1.225397e-001
4308499854	1.070781e-001	7.406663e-002	-5.317241e-001	-7.455119e-001	-5.506821e-001	-7.388359e-001	2.548919e-002	1.317330e-001
4357999852	1.214291e-001	6.803334e-002	-5.934819e-001	-6.549918e-001	-5.887304e-001	-6.687939e-001	4.753678e-002	1.328725e-001
4407499850	1.363418e-001	6.384248e-002	-6.590378e-001	-6.269319e-001	-6.718255e-001	-6.230423e-001	7.122244e-002	1.346198e-001
4456999848	1.496262e-001	5.284865e-002	-7.090569e-001	-5.190660e-001	-7.088420e-001	-5.275855e-001	9.369118e-002	1.265922e-001
4506499846	1.637918e-001	4.235928e-002	-7.655395e-001	-4.937250e-001	-7.807776e-001	-4.852564e-001	1.173423e-001	1.203313e-001
4555999845	1.724728e-001	2.659427e-002	-7.890525e-001	-3.653077e-001	-7.905744e-001	-3.779091e-001	1.360126e-001	1.039502e-001
4605499843	1.813375e-001	1.021491e-002	-8.382490e-001	-3.374935e-001	-8.500357e-001	-3.193553e-001	1.544570e-001	8.788418e-002
4654999841	1.836450e-001	-8.958473e-003	-8.522244e-001	-2.040275e-001	-8.625575e-001	-2.160850e-001	1.667434e-001	6.395985e-002
4704499839	1.855458e-001	-2.710780e-002	-8.664016e-001	-1.783157e-001	-8.727542e-001	-1.558897e-001	1.765240e-001	4.163608e-002
4753999838	1.815384e-001	-4.722461e-002	-8.852206e-001	-2.742883e-002	-8.930901e-001	-3.049676e-002	1.793260e-001	1.491076e-002
4803499836	1.776500e-001	-6.385081e-002	-8.778413e-001	-1.638270e-002	-8.793069e-001	5.199190e-003	1.806767e-001	-7.901951e-003
4852999834	1.687106e-001	-8.208887e-002	-8.778946e-001	1.393349e-001	-8.805781e-001	1.395655e-001	1.748930e-001	-3.448297e-002
4902499832	1.606934e-001	-9.635151e-002	-8.557935e-001	1.642820e-001	-8.470864e-001	1.864671e-001	1.684079e-001	-5.623071e-002
4951999831	1.479680e-001	-1.106637e-001	-8.495770e-001	2.922255e-001	-8.549324e-001	2.875827e-001	1.552474e-001	-7.853599e-002
5001499829	1.342323e-001	-1.184105e-001	-7.928470e-001	3.343001e-001	-7.752445e-001	3.540287e-001	1.392468e-001	-9.471721e-002
5050999827	1.173390e-001	-1.263623e-001	-7.855253e-001	4.439916e-001	-7.917485e-001	4.402268e-001	1.187180e-001	-1.093990e-001
5100499825	9.976784e-002	-1.284390e-001	-7.162519e-001	4.878978e-001	-6.946529e-001	4.987692e-001	9.586082e-002	-1.177463e-001
5149999824	8.216527e-002	-1.278678e-001	-6.811372e-001	5.777641e-001	-6.841160e-001	5.731869e-001	7.142155e-002	-1.218529e-001
5199499822	6.632888e-002	-1.231581e-001	-6.076709e-001	6.314700e-001	-5.929955e-001	6.369304e-001	4.658847e-002	-1.198642e-001
5248999820	5.142127e-002	-1.152997e-001	-5.602969e-001	6.915424e-001	-5.567649e-001	6.855210e-001	2.384390e-002	-1.135332e-001
5298499818	3.942412e-002	-1.048592e-001	-4.670032e-001	7.390500e-001	-4.582244e-001	7.415537e-001	3.394951e-003	-1.014784e-001
5347999816	3.018963e-002	-9.334787e-002	-4.142025e-001	7.907581e-001	-4.127314e-001	7.834209e-001	-1.560002e-002	-8.704391e-002
5397499815	2.431857e-002	-7.825208e-002	-3.176370e-001	8.156985e-001	-3.071564e-001	8.159144e-001	-2.959059e-002	-6.767658e-002
5446999813	2.251800e-002	-6.413458e-002	-2.446139e-001	8.529928e-001	-2.486331e-001	8.483145e-001	-3.884349e-002	-4.574998e-002
5496499811	2.363651e-002	-4.658222e-002	-1.536352e-001	8.652355e-001	-1.414369e-001	8.684115e-001	-4.327276e-002	-2.131458e-002
5545999809	2.807694e-002	-3.262491e-002	-6.543929e-002	8.796667e-001	-7.213836e-002	8.688363e-001	-4.079217e-002	2.897489e-003
5595499808	3.735838e-002	-1.853364e-002	1.270748e-002	8.769885e-001	3.060440e-002	8.910076e-001	-3.394585e-002	2.684868e-002
5644999806	4.897831e-002	-8.965869e-003	1.181185e-001	8.713038e-001	1.080429e-001	8.508105e-001	-2.021792e-002	4.767707e-002
5694499804	6.556944e-002	-2.647344e-004	1.786656e-001	8.577198e-001	1.993835e-001	8.738689e-001	-3.731961e-003	6.801392e-002
5743999802	8.416232e-002	9.402472e-004	2.896556e-001	8.267880e-001	2.842276e-001	8.040914e-001	2.089415e-002	8.184096e-002
5793499801	1.036437e-001	7.248911e-004	3.410607e-001	7.985208e-001	3.519667e-001	8.079511e-001	4.692620e-002	9.145087e-002
5842999799	1.242609e-001	-5.373215e-003	4.522446e-001	7.593015e-001	4.543339e-001	7.316387e-001	7.713010e-002	9.582620e-002
5892499797	1.432879e-001	-1.509242e-002	4.795256e-001	7.080938e-001	4.838213e-001	7.108332e-001	1.054664e-001	9.219145e-002
5941999795	1.619866e-001	-2.915942e-002	6.012598e-001	6.465052e-001	5.947162e-001	6.261263e-001	1.361894e-001	8.343473e-002
5991499793	1.768835e-001	-4.542861e-002	6.047263e-001	6.016869e-001	6.140597e-001	5.878655e-001	1.615404e-001	7.083316e-002
6040999792	1.899613e-001	-6.416922e-002	7.110648e-001	5.143734e-001	6.874993e-001	5.052909e-001	1.861474e-001	5.013448e-002
6090499790	1.993164e-001	-8.779203e-002	7.060923e-001	4.534533e-001	7.134695e-001	4.360543e-001	2.072254e-001	2.701044e-002
6139999788	2.045725e-001	-1.125126e-001	8.026658e-001	3.806238e-001	7.686489e-001	3.751806e-001	2.229720e-001	-1.547911e-003
6189499786	2.048523e-001	-1.390361e-001	7.608401e-001	2.929364e-001	7.694297e-001	2.851397e-001	2.337651e-001	-3.388675e-002
6238999785	2.006924e-001	-1.666774e-001	8.697979e-001	2.160525e-001	8.219631e-001	2.093274e-001	2.387726e-001	-6.930908e-002
6288499783	1.910780e-001	-1.917193e-001	7.964483e-001	1.321950e-001	8.076500e-001	1.393418e-001	2.358793e-001	-1.030787e-001
6337999781	1.771722e-001	-2.162320e-001	8.713874e-001	5.770830e-002	8.276529e-001	5.724267e-002	2.270749e-001	-1.372477e-001
6387499779	1.595974e-001	-2.364078e-001	8.127164e-001	-5.206024e-002	8.186618e-001	-3.606287e-002	2.111458e-001	-1.682189e-001
6436999778	1.385973e-001	-2.542900e-001	8.531610e-001	-7.987011e-002	8.293774e-001	-7.386576e-002	1.921398e-001	-1.966116e-001
6486499776	1.147632e-001	-2.679933e-001	7.786526e-001	-2.245773e-001	7.782692e-001	-2.043930e-001	1.649526e-001	-2.196757e-001
6535999774	9.034170e-002	-2.810424e-001	8.140100e-001	-2.375747e-001	8.045671e-001	-2.270216e-001	1.385794e-001	-2.423130e-001
6585499772	6.313053e-002	-2.888751e-001	7.289235e-001	-3.626737e-001	7.327557e-001	-3.429777e-001	1.052793e-001	-2.573131e-001
6634999771	3.574016e-002	-2.941286e-001	7.276786e-001	-3.875532e-001	7.236926e-001	-3.740013e-001	7.198001e-002	-2.695762e-001
6684499769	7.226385e-003	-2.927037e-001	6.619947e-001	-4.987466e-001	6.782240e-001	-4.870870e-001	3.566847e-002	-2.724807e-001
6733999767	-1.831995e-002	-2.866547e-001	6.333997e-001	-5.050156e-001	6.307207e-001	-4.939646e-001	3.813356e-004	-2.698348e-001
6783499765	-4.360150e-002	-2.743607e-001	5.500554e-001	-6.171579e-001	5.701434e-001	-6.124425e-001	-3.333934e-002	-2.575135e-001
6832999763	-6.213966e-002	-2.615526e-001	5.297854e-001	-6.230728e-001	5.322894e-001	-6.181725e-001	-6.276568e-002	-2.412404e-001
6882499762	-7.855766e-002	-2.428982e-001	4.278332e-001	-6.963244e-001	4.417813e-001	-6.922205e-001	-8.748667e-002	-2.199850e-001
6931999760	-9.229640e-002	-2.247067e-001	3.892806e-001	-7.209631e-001	3.964482e-001	-7.266623e-001	-1.088828e-001	-1.941356e-001
6981499758	-1.007702e-001	-2.031582e-001	3.013597e-001	-7.726630e-001	3.101094e-001	-7.680481e-001	-1.242296e-001	-1.646279e-001
7030999756	-1.060366e-001	-1.828261e-001	2.378151e-001	-7.768833e-001	2.404335e-001	-7.819701e-001	-1.329168e-001	-1.322108e-001
7080499755	-1.043214e-001	-1.607438e-001	1.471298e-001	-8.273017e-001	1.524073e-001	-8.311384e-001	-1.362638e-001	-9.955937e-002
7129999753	-9.930491e-002	-1.417774e-001	7.881742e-002	-8.157918e-001	8.319203e-002	-8.111357e-001	-1.278368e-001	-6.807575e-002
7179499751	-8.701219e-002	-1.232322e-001	-1.461335e-002	-8.384741e-001	-1.469025e-002	-8.480174e-001	-1.144099e-001	-3.790400e-002
7228999749	-7.242746e-002	-1.113774e-001	-9.607014e-002	-8.259539e-001	-9.260654e-002	-8.188744e-001	-9.274321e-002	-1.247244e-002
7278499748	-5.262666e-002	-1.027882e-001	-1.800271e-001	-8.181568e-001	-1.718971e-001	-8.204253e-001	-6.716996e-002	7.005701e-003
7327999746	-3.227087e-002	-9.844107e-002	-2.700810e-001	-7.948484e-001	-2.741032e-001	-7.927254e-001	-3.559646e-002	2.136792e-002
7377499744	-1.192498e-002	-1.002180e-001	-3.442962e-001	-7.582984e-001	-3.279258e-001	-7.607139e-001	-3.450277e-003	2.687029e-002
7426999742	8.527121e-003	-1.092764e-001	-4.334507e-001	-7.242444e-001	-4.362082e-001	-7.232439e-001	3.273572e-002	2.535419e-002
7476499741	2.470472e-002	-1.231269e-001	-4.929179e-001	-6.651290e-001	-4.852922e-001	-6.692463e-001	6.597505e-002	1.385270e-002
7525999739	3.888459e-002	-1.414931e-001	-5.695591e-001	-6.130653e-001	-5.589648e-001	-6.182513e-001	9.703058e-002	-5.980579e-003
7575499737	4.943030e-002	-1.646836e-001	-6.239747e-001	-5.377263e-001	-6.253005e-001	-5.396518e-001	1.245446e-001	-3.379816e-002
7624999735	5.375273e-002	-1.905546e-001	-6.739240e-001	-4.823873e-001	-6.594865e-001	-4.911326e-001	1.450764e-001	-6.534260e-002
7674499733	5.370272e-002	-2.204089e-001	-7.115246e-001	-3.782810e-001	-7.157060e-001	-3.898526e-001	1.583149e-001	-1.044192e-001
7723999732	4.708588e-002	-2.480497e-001	-7.468478e-001	-3.295793e-001	-7.413514e-001	-3.344599e-001	1.656486e-001	-1.439285e-001
