!Agilent Technologies,E5071C,MY46108981,A.11.08
!Date: Sat Oct 19 16:24:46 2019
!Data & Calibration Information:
!Freq	S11:SOLT2(ON)	S21:SOLT2(ON)	S12:SOLT2(ON)	S22:SOLT2(ON)
!PortZ  Port1:50+j0    Port2:50+j0
!Above PortZ is port z conversion or system Z0 setting when saving the data.
!When reading, reference impedance value at option line is always used.
# Hz S RI R 50
200000000	6.359144e-003	1.771419e-002	9.142649e-001	-3.872787e-001	9.140753e-001	-3.874700e-001	8.308478e-003	1.630290e-002
249499998	9.169644e-003	2.245357e-002	8.699899e-001	-4.737351e-001	8.698595e-001	-4.742453e-001	1.218033e-002	2.084190e-002
298999996	1.334474e-002	2.751212e-002	8.188012e-001	-5.561130e-001	8.185103e-001	-5.561421e-001	1.629403e-002	2.393905e-002
348499995	1.817435e-002	3.101151e-002	7.588878e-001	-6.325782e-001	7.585827e-001	-6.330793e-001	2.260606e-002	2.571515e-002
397999993	2.402872e-002	3.419105e-002	6.937022e-001	-7.025047e-001	6.931418e-001	-7.028692e-001	2.857414e-002	2.716609e-002
447499991	3.057013e-002	3.605891e-002	6.199264e-001	-7.659154e-001	6.199866e-001	-7.662081e-001	3.513479e-002	2.684052e-002
496999989	3.812180e-002	3.623234e-002	5.429945e-001	-8.208518e-001	5.421015e-001	-8.213298e-001	4.263367e-002	2.404528e-002
546499988	4.599508e-002	3.518242e-002	4.582675e-001	-8.698486e-001	4.584313e-001	-8.697518e-001	4.900118e-002	2.017656e-002
595999986	5.296050e-002	3.205884e-002	3.725027e-001	-9.075928e-001	3.719628e-001	-9.078579e-001	5.487685e-002	1.413119e-002
645499984	5.885959e-002	2.790518e-002	2.810757e-001	-9.392150e-001	2.817593e-001	-9.388713e-001	5.963621e-002	8.103951e-003
694999982	6.466915e-002	2.162095e-002	1.892434e-001	-9.592888e-001	1.880476e-001	-9.601099e-001	6.205222e-002	-2.721754e-004
744499981	6.931038e-002	1.584752e-002	9.442944e-002	-9.726647e-001	9.588859e-002	-9.722277e-001	6.311071e-002	-8.340099e-003
793999979	7.217125e-002	7.785609e-003	1.740135e-003	-9.754511e-001	-4.427707e-004	-9.754185e-001	6.336993e-002	-1.701655e-002
843499977	7.372078e-002	4.784944e-004	-9.437472e-002	-9.704661e-001	-9.335254e-002	-9.698283e-001	6.056329e-002	-2.594910e-002
892999975	7.307674e-002	-7.581087e-003	-1.849090e-001	-9.548986e-001	-1.866047e-001	-9.549280e-001	5.677963e-002	-3.353246e-002
942499974	7.137456e-002	-1.458969e-002	-2.784838e-001	-9.326925e-001	-2.777972e-001	-9.322664e-001	5.115599e-002	-3.966768e-002
991999972	6.833926e-002	-2.180865e-002	-3.634749e-001	-8.994461e-001	-3.652356e-001	-8.989331e-001	4.377773e-002	-4.606713e-002
1041499970	6.423969e-002	-2.793726e-002	-4.517411e-001	-8.618576e-001	-4.502568e-001	-8.608386e-001	3.555323e-002	-5.007939e-002
1090999968	5.869729e-002	-3.218793e-002	-5.291653e-001	-8.106975e-001	-5.306354e-001	-8.102168e-001	2.659545e-002	-5.254901e-002
1140499966	5.257358e-002	-3.660863e-002	-6.070506e-001	-7.583665e-001	-6.043694e-001	-7.578877e-001	1.784020e-002	-5.352278e-002
1189999965	4.597206e-002	-3.855186e-002	-6.767541e-001	-6.920845e-001	-6.768890e-001	-6.916719e-001	9.303406e-003	-5.197907e-002
1239499963	3.983080e-002	-3.976936e-002	-7.392387e-001	-6.276505e-001	-7.366030e-001	-6.263156e-001	9.839932e-004	-4.877515e-002
1288999961	3.340835e-002	-3.961971e-002	-7.966220e-001	-5.474692e-001	-7.968191e-001	-5.486355e-001	-6.633462e-003	-4.423785e-002
1338499959	2.736388e-002	-3.829521e-002	-8.447905e-001	-4.722688e-001	-8.425722e-001	-4.711740e-001	-1.228514e-002	-3.752442e-002
1387999958	2.216600e-002	-3.536729e-002	-8.861345e-001	-3.844246e-001	-8.859991e-001	-3.861128e-001	-1.723591e-002	-3.146386e-002
1437499956	1.784273e-002	-3.201386e-002	-9.178928e-001	-2.990346e-001	-9.166242e-001	-2.982377e-001	-1.963639e-002	-2.345888e-002
1486999954	1.440306e-002	-2.764624e-002	-9.422751e-001	-2.060261e-001	-9.426394e-001	-2.084101e-001	-2.065024e-002	-1.550092e-002
1536499952	1.225080e-002	-2.324031e-002	-9.561429e-001	-1.155943e-001	-9.554144e-001	-1.158232e-001	-2.029810e-002	-8.550020e-003
1585999951	1.100054e-002	-1.859192e-002	-9.617581e-001	-2.108257e-002	-9.627957e-001	-2.281307e-002	-1.816793e-002	-1.295609e-003
1635499949	1.170575e-002	-1.429472e-002	-9.588060e-001	7.105149e-002	-9.585066e-001	7.008654e-002	-1.424492e-002	5.229475e-003
1684999947	1.210531e-002	-9.772087e-003	-9.451797e-001	1.637467e-001	-9.470710e-001	1.634139e-001	-9.347757e-003	1.008135e-002
1734499945	1.394468e-002	-6.334062e-003	-9.256179e-001	2.538779e-001	-9.244506e-001	2.533939e-001	-3.333330e-003	1.318051e-002
1783999944	1.667068e-002	-3.561750e-003	-8.938108e-001	3.413272e-001	-8.954544e-001	3.406574e-001	3.300097e-003	1.538145e-002
1833499942	1.978217e-002	-1.538245e-003	-8.585032e-001	4.265290e-001	-8.568563e-001	4.272495e-001	1.006577e-002	1.581686e-002
1882999940	2.252993e-002	-9.322393e-004	-8.091070e-001	5.043438e-001	-8.111156e-001	5.036878e-001	1.563208e-002	1.407359e-002
1932499938	2.633254e-002	-5.291129e-004	-7.600704e-001	5.825975e-001	-7.580882e-001	5.832777e-001	2.106667e-002	1.135899e-002
1981999936	2.976189e-002	-1.953429e-003	-6.951570e-001	6.491771e-001	-6.961322e-001	6.489957e-001	2.559949e-002	6.953281e-003
2031499935	3.232655e-002	-2.820674e-003	-6.341494e-001	7.165855e-001	-6.326353e-001	7.164998e-001	2.963073e-002	1.884050e-003
2080999933	3.487718e-002	-4.549868e-003	-5.543852e-001	7.698304e-001	-5.555377e-001	7.701310e-001	3.145960e-002	-4.023974e-003
2130499931	3.656001e-002	-7.451970e-003	-4.839995e-001	8.237237e-001	-4.835875e-001	8.208468e-001	3.196077e-002	-9.944161e-003
2179999929	3.688228e-002	-1.044845e-002	-3.967469e-001	8.605913e-001	-3.967750e-001	8.624288e-001	3.047453e-002	-1.654864e-002
2229499928	3.719876e-002	-1.313468e-002	-3.145461e-001	9.000445e-001	-3.147147e-001	8.954850e-001	2.801260e-002	-2.276179e-002
2278999926	3.573721e-002	-1.624510e-002	-2.250753e-001	9.206181e-001	-2.253361e-001	9.226882e-001	2.408463e-002	-2.778002e-002
2328499924	3.471488e-002	-1.870557e-002	-1.332563e-001	9.407985e-001	-1.347685e-001	9.355725e-001	1.889678e-002	-3.159691e-002
2377999922	3.297279e-002	-2.110040e-002	-4.239234e-002	9.448103e-001	-4.381019e-002	9.472196e-001	1.162436e-002	-3.473542e-002
2427499921	3.058776e-002	-2.177211e-002	4.923703e-002	9.473616e-001	4.691929e-002	9.431095e-001	5.578926e-003	-3.714841e-002
2476999919	2.835664e-002	-2.301343e-002	1.405415e-001	9.310834e-001	1.384790e-001	9.347341e-001	-1.673652e-003	-3.589340e-002
2526499917	2.586069e-002	-2.355257e-002	2.293324e-001	9.184665e-001	2.267274e-001	9.166251e-001	-9.159463e-003	-3.487051e-002
2575999915	2.353307e-002	-2.321693e-002	3.177272e-001	8.861295e-001	3.157392e-001	8.896923e-001	-1.480804e-002	-3.185014e-002
2625499914	2.110147e-002	-2.237089e-002	3.983398e-001	8.534958e-001	3.978648e-001	8.518350e-001	-2.117404e-002	-2.640677e-002
2674999912	1.842547e-002	-2.185284e-002	4.828590e-001	8.060083e-001	4.810817e-001	8.136335e-001	-2.571702e-002	-2.021929e-002
2724499910	1.763223e-002	-1.984456e-002	5.522172e-001	7.603219e-001	5.523177e-001	7.560614e-001	-2.850350e-002	-1.338709e-002
2773999908	1.596380e-002	-1.777149e-002	6.281735e-001	6.959082e-001	6.273397e-001	7.050210e-001	-3.102376e-002	-6.460159e-003
2823499906	1.605329e-002	-1.637120e-002	6.864154e-001	6.383444e-001	6.876355e-001	6.335104e-001	-3.102101e-002	8.851370e-006
2872999905	1.646821e-002	-1.462364e-002	7.472679e-001	5.622453e-001	7.463951e-001	5.695219e-001	-2.931211e-002	7.467930e-003
2922499903	1.730583e-002	-1.331082e-002	7.930981e-001	4.923940e-001	7.990713e-001	4.887001e-001	-2.747753e-002	1.350445e-002
2971999901	1.804922e-002	-1.204332e-002	8.402953e-001	4.084396e-001	8.370434e-001	4.144713e-001	-2.317584e-002	1.905595e-002
3021499899	1.933870e-002	-1.104276e-002	8.718607e-001	3.308264e-001	8.777197e-001	3.253771e-001	-1.835140e-002	2.339250e-002
3070999898	2.028803e-002	-1.146657e-002	8.995844e-001	2.390999e-001	8.993958e-001	2.449224e-001	-1.242364e-002	2.687218e-002
3120499896	2.148604e-002	-1.155359e-002	9.189630e-001	1.559415e-001	9.210463e-001	1.516711e-001	-6.500624e-003	2.786476e-002
3169999894	2.206018e-002	-1.228347e-002	9.274598e-001	6.259046e-002	9.282852e-001	6.467563e-002	-1.513327e-004	2.811888e-002
3219499892	2.204582e-002	-1.297798e-002	9.294128e-001	-2.323888e-002	9.316329e-001	-2.685067e-002	5.380541e-003	2.672423e-002
3268999891	2.262144e-002	-1.507258e-002	9.207241e-001	-1.184834e-001	9.211225e-001	-1.156829e-001	1.023538e-002	2.364583e-002
3318499889	2.228513e-002	-1.589870e-002	9.068903e-001	-1.997629e-001	9.088587e-001	-2.052667e-001	1.375392e-002	2.044696e-002
3367999887	2.097873e-002	-1.740568e-002	8.780517e-001	-2.936860e-001	8.784974e-001	-2.896564e-001	1.660216e-002	1.527030e-002
3417499885	1.908629e-002	-1.861162e-002	8.502587e-001	-3.706694e-001	8.501495e-001	-3.759518e-001	1.728957e-002	9.506764e-003
3466999884	1.650557e-002	-1.921910e-002	8.043113e-001	-4.556863e-001	8.047224e-001	-4.538122e-001	1.676635e-002	4.323684e-003
3516499882	1.290382e-002	-1.918529e-002	7.590727e-001	-5.265799e-001	7.594952e-001	-5.286380e-001	1.449014e-002	-5.486331e-004
3565999880	9.472050e-003	-1.883888e-002	7.014426e-001	-6.011511e-001	7.000618e-001	-6.012628e-001	1.076367e-002	-5.527691e-003
3615499878	6.840095e-003	-1.624929e-002	6.402489e-001	-6.623056e-001	6.412427e-001	-6.627489e-001	5.843070e-003	-8.383154e-003
3664999876	2.880815e-003	-1.368227e-002	5.715274e-001	-7.216749e-001	5.707020e-001	-7.228304e-001	-7.180938e-004	-1.043545e-002
3714499875	1.157032e-003	-1.016969e-002	4.987090e-001	-7.733205e-001	4.985115e-001	-7.723674e-001	-6.675558e-003	-1.002349e-002
3763999873	-1.259905e-003	-6.046505e-003	4.209598e-001	-8.150886e-001	4.219071e-001	-8.164585e-001	-1.439023e-002	-8.187811e-003
3813499871	-1.791681e-003	-6.866808e-004	3.405626e-001	-8.535323e-001	3.389680e-001	-8.534306e-001	-2.138723e-002	-4.827339e-003
3862999869	-2.347712e-003	5.793882e-003	2.534875e-001	-8.767724e-001	2.574344e-001	-8.780246e-001	-2.799090e-002	6.957447e-004
3912499868	-1.102688e-003	1.138002e-002	1.708504e-001	-9.035162e-001	1.665427e-001	-9.023679e-001	-3.292012e-002	7.975986e-003
3961999866	2.708216e-003	1.861515e-002	7.814689e-002	-9.047094e-001	8.530789e-002	-9.087024e-001	-3.624258e-002	1.708948e-002
4011499864	5.120855e-003	2.408217e-002	-4.979496e-003	-9.191517e-001	-1.099312e-002	-9.159765e-001	-3.813332e-002	2.766580e-002
4060999862	1.252692e-002	3.074976e-002	-1.002798e-001	-8.990899e-001	-9.144129e-002	-9.047339e-001	-3.849557e-002	3.835270e-002
4110499861	1.738892e-002	3.595288e-002	-1.767848e-001	-9.009249e-001	-1.860504e-001	-8.982879e-001	-3.713847e-002	4.910109e-002
4159999859	2.747485e-002	3.838782e-002	-2.748234e-001	-8.567071e-001	-2.626390e-001	-8.643087e-001	-3.072094e-002	6.003611e-002
4209499857	3.614337e-002	4.249552e-002	-3.448733e-001	-8.513665e-001	-3.601561e-001	-8.470587e-001	-2.598340e-002	7.040001e-002
4258999855	4.585266e-002	4.098810e-002	-4.326291e-001	-7.834955e-001	-4.196637e-001	-7.942037e-001	-1.370155e-002	7.981670e-002
4308499854	5.590473e-002	4.095941e-002	-5.021769e-001	-7.635227e-001	-5.157578e-001	-7.583470e-001	-4.177866e-003	8.656377e-002
4357999852	6.532523e-002	3.644295e-002	-5.739591e-001	-6.884608e-001	-5.692399e-001	-6.970109e-001	8.064572e-003	9.055173e-002
4407499850	7.553912e-002	3.240266e-002	-6.355914e-001	-6.508318e-001	-6.459571e-001	-6.467342e-001	2.186616e-002	9.491496e-002
4456999848	8.360230e-002	2.423547e-002	-6.967121e-001	-5.592443e-001	-6.937998e-001	-5.651419e-001	3.593152e-002	9.313824e-002
4506499846	9.201195e-002	1.671642e-002	-7.459453e-001	-5.191281e-001	-7.593793e-001	-5.110602e-001	5.071845e-002	9.223788e-002
4555999845	9.759714e-002	5.513563e-003	-7.887696e-001	-4.096539e-001	-7.850929e-001	-4.188096e-001	6.458273e-002	8.614950e-002
4605499843	1.022904e-001	-5.876314e-003	-8.263887e-001	-3.647879e-001	-8.375755e-001	-3.511787e-001	7.726152e-002	7.917731e-002
4654999841	1.029407e-001	-1.898937e-002	-8.579097e-001	-2.496642e-001	-8.577923e-001	-2.572118e-001	8.786940e-002	6.722608e-002
4704499839	1.029093e-001	-3.112214e-002	-8.660204e-001	-1.996739e-001	-8.755933e-001	-1.875758e-001	9.727892e-002	5.583989e-002
4753999838	9.880945e-002	-4.416400e-002	-8.974850e-001	-7.684416e-002	-8.919738e-001	-7.747753e-002	1.029374e-001	4.014505e-002
4803499836	9.464881e-002	-5.510968e-002	-8.818096e-001	-3.274070e-002	-8.915153e-001	-2.070549e-002	1.071281e-001	2.735029e-002
4852999834	8.695240e-002	-6.659264e-002	-8.965316e-001	9.359319e-002	-8.874812e-001	9.513420e-002	1.076779e-001	1.129672e-002
4902499832	7.925965e-002	-7.568114e-002	-8.676430e-001	1.466099e-001	-8.673746e-001	1.564527e-001	1.067128e-001	-1.474920e-003
4951999831	6.936939e-002	-8.321244e-002	-8.659936e-001	2.525937e-001	-8.628155e-001	2.543388e-001	1.022989e-001	-1.611213e-002
5001499829	5.832159e-002	-8.728015e-002	-8.149373e-001	3.193592e-001	-8.081707e-001	3.227164e-001	9.501549e-002	-2.721788e-002
5050999827	4.604401e-002	-8.991929e-002	-8.034720e-001	4.091450e-001	-8.013856e-001	4.129051e-001	8.511699e-002	-3.851626e-002
5100499825	3.317166e-002	-8.909961e-002	-7.399072e-001	4.736515e-001	-7.314765e-001	4.727382e-001	7.275871e-002	-4.523704e-002
5149999824	2.074579e-002	-8.548725e-002	-7.032308e-001	5.499151e-001	-7.018427e-001	5.508943e-001	5.965797e-002	-5.046456e-002
5199499822	1.048855e-002	-7.969846e-002	-6.365132e-001	6.144581e-001	-6.284546e-001	6.115541e-001	4.524298e-002	-5.126548e-002
5248999820	1.118406e-003	-7.125990e-002	-5.813870e-001	6.694612e-001	-5.806174e-001	6.703893e-001	3.164691e-002	-4.946179e-002
5298499818	-6.082670e-003	-6.125170e-002	-5.023874e-001	7.276131e-001	-4.991078e-001	7.213555e-001	1.887458e-002	-4.407617e-002
5347999816	-1.070000e-002	-4.971138e-002	-4.394892e-001	7.681568e-001	-4.377643e-001	7.701188e-001	7.211945e-003	-3.703596e-002
5397499815	-1.285674e-002	-3.715177e-002	-3.535502e-001	8.095931e-001	-3.516923e-001	8.052439e-001	-2.343088e-003	-2.584676e-002
5446999813	-1.093310e-002	-2.502996e-002	-2.762694e-001	8.363410e-001	-2.770367e-001	8.375528e-001	-8.755547e-003	-1.338673e-002
5496499811	-7.140517e-003	-1.146540e-002	-1.934646e-001	8.621211e-001	-1.879725e-001	8.623622e-001	-1.249141e-002	1.364668e-003
5545999809	-1.196999e-004	-5.111978e-005	-1.012328e-001	8.703541e-001	-1.049041e-001	8.688962e-001	-1.210253e-002	1.621236e-002
5595499808	9.463193e-003	9.552144e-003	-2.975608e-002	8.812079e-001	-1.913170e-002	8.875092e-001	-8.830223e-003	3.145589e-002
5644999806	2.174367e-002	1.658226e-002	7.780887e-002	8.708660e-001	7.394857e-002	8.618985e-001	-8.906484e-004	4.539085e-002
5694499804	3.681920e-002	2.195909e-002	1.375871e-001	8.677974e-001	1.500355e-001	8.770341e-001	8.850464e-003	5.995481e-002
5743999802	5.391463e-002	2.233299e-002	2.462896e-001	8.381314e-001	2.462499e-001	8.247789e-001	2.507652e-002	7.039760e-002
5793499801	7.121919e-002	2.044450e-002	3.011542e-001	8.157913e-001	3.099490e-001	8.213769e-001	4.263250e-002	7.822686e-002
5842999799	8.887501e-002	1.364199e-002	4.101731e-001	7.820480e-001	4.133148e-001	7.623588e-001	6.367939e-002	8.339483e-002
5892499797	1.051847e-001	4.027448e-003	4.454647e-001	7.332763e-001	4.500144e-001	7.343186e-001	8.355179e-002	8.285685e-002
5941999795	1.205582e-001	-9.180448e-003	5.615505e-001	6.814809e-001	5.562826e-001	6.660397e-001	1.055441e-001	7.925260e-002
5991499793	1.320728e-001	-2.471703e-002	5.759529e-001	6.330035e-001	5.858882e-001	6.229037e-001	1.249853e-001	7.335530e-002
6040999792	1.427177e-001	-4.212467e-002	6.793798e-001	5.600257e-001	6.600631e-001	5.491752e-001	1.447045e-001	6.126306e-002
6090499790	1.491889e-001	-6.268055e-002	6.872287e-001	4.929047e-001	6.948733e-001	4.815597e-001	1.620873e-001	4.691745e-002
6139999788	1.518844e-001	-8.466009e-002	7.772861e-001	4.308977e-001	7.502418e-001	4.212932e-001	1.768622e-001	2.839027e-002
6189499786	1.509015e-001	-1.074408e-001	7.569839e-001	3.356186e-001	7.638288e-001	3.352918e-001	1.885121e-001	6.858638e-003
6238999785	1.450750e-001	-1.305499e-001	8.532020e-001	2.744950e-001	8.153422e-001	2.603232e-001	1.971028e-001	-1.817476e-002
6288499783	1.355011e-001	-1.520730e-001	8.047319e-001	1.759285e-001	8.126828e-001	1.880709e-001	1.991075e-001	-4.258910e-002
6337999781	1.209500e-001	-1.713150e-001	8.690658e-001	1.122809e-001	8.352091e-001	1.054074e-001	1.976566e-001	-6.873202e-002
6387499779	1.041684e-001	-1.877425e-001	8.349242e-001	-4.426588e-003	8.335131e-001	1.412482e-002	1.906601e-001	-9.297511e-002
6436999778	8.464466e-002	-2.005815e-001	8.578867e-001	-3.558156e-002	8.461799e-001	-3.554104e-002	1.813459e-001	-1.162255e-001
6486499776	6.261652e-002	-2.104522e-001	8.160554e-001	-1.801528e-001	8.058363e-001	-1.560566e-001	1.646633e-001	-1.362995e-001
6535999774	4.092964e-002	-2.179961e-001	8.272104e-001	-1.977971e-001	8.274995e-001	-1.960910e-001	1.504832e-001	-1.566192e-001
6585499772	1.639735e-002	-2.219260e-001	7.711691e-001	-3.283164e-001	7.671474e-001	-3.031280e-001	1.292055e-001	-1.719347e-001
6634999771	-7.094967e-003	-2.219880e-001	7.527243e-001	-3.583291e-001	7.567279e-001	-3.499950e-001	1.080342e-001	-1.857386e-001
6684499769	-3.080838e-002	-2.173103e-001	7.077638e-001	-4.682331e-001	7.108667e-001	-4.541929e-001	8.291951e-002	-1.936346e-001
6733999767	-5.231877e-002	-2.073662e-001	6.599573e-001	-4.878438e-001	6.692789e-001	-4.803877e-001	5.887536e-002	-1.968659e-001
6783499765	-7.155423e-002	-1.932720e-001	6.009318e-001	-5.979751e-001	6.063839e-001	-5.849222e-001	3.349782e-002	-1.934636e-001
6832999763	-8.510184e-002	-1.772502e-001	5.556552e-001	-6.076063e-001	5.670098e-001	-6.107425e-001	1.192626e-002	-1.861517e-001
6882499762	-9.635671e-002	-1.582168e-001	4.739096e-001	-6.903409e-001	4.829309e-001	-6.773635e-001	-7.503191e-003	-1.747138e-001
6931999760	-1.036174e-001	-1.386077e-001	4.200581e-001	-7.122192e-001	4.300509e-001	-7.201392e-001	-2.451476e-002	-1.603915e-001
6981499758	-1.061523e-001	-1.176470e-001	3.433971e-001	-7.670949e-001	3.484208e-001	-7.608122e-001	-3.718431e-002	-1.422735e-001
7030999756	-1.050561e-001	-9.705896e-002	2.647627e-001	-7.754838e-001	2.768670e-001	-7.840275e-001	-4.590066e-002	-1.231372e-001
7080499755	-9.790244e-002	-7.771159e-002	1.938760e-001	-8.241057e-001	1.907354e-001	-8.225741e-001	-5.052421e-002	-1.021599e-001
7129999753	-8.644857e-002	-5.996650e-002	1.047661e-001	-8.159289e-001	1.160912e-001	-8.212481e-001	-4.686636e-002	-8.238584e-002
7179499751	-7.086950e-002	-4.550571e-002	2.909452e-002	-8.422395e-001	2.582558e-002	-8.442279e-001	-3.954144e-002	-6.164744e-002
7228999749	-5.191287e-002	-3.601137e-002	-6.412713e-002	-8.309371e-001	-5.760963e-002	-8.303038e-001	-2.582427e-002	-4.476804e-002
7278499748	-2.963138e-002	-3.128897e-002	-1.382278e-001	-8.230773e-001	-1.370469e-001	-8.260729e-001	-9.263192e-003	-3.127753e-002
7327999746	-6.679894e-003	-3.014182e-002	-2.367672e-001	-8.083384e-001	-2.312403e-001	-8.083074e-001	1.211914e-002	-2.160050e-002
7377499744	1.559512e-002	-3.622521e-002	-2.990826e-001	-7.696166e-001	-2.961102e-001	-7.721429e-001	3.437110e-002	-1.853254e-002
7426999742	3.787544e-002	-4.771946e-002	-3.991784e-001	-7.433393e-001	-3.928969e-001	-7.468817e-001	5.905176e-002	-1.998835e-002
7476499741	5.583047e-002	-6.492539e-002	-4.514778e-001	-6.888238e-001	-4.515102e-001	-6.911775e-001	8.195596e-002	-2.986687e-002
7525999739	7.140327e-002	-8.676599e-002	-5.332367e-001	-6.417665e-001	-5.227837e-001	-6.459122e-001	1.039203e-001	-4.538733e-002
7575499737	8.231355e-002	-1.131758e-001	-5.890372e-001	-5.706311e-001	-5.939201e-001	-5.760307e-001	1.235978e-001	-6.661052e-002
7624999735	8.752844e-002	-1.415569e-001	-6.434623e-001	-5.213692e-001	-6.287345e-001	-5.250471e-001	1.382554e-001	-9.102463e-002
7674499733	8.762890e-002	-1.738684e-001	-6.844071e-001	-4.201466e-001	-6.924385e-001	-4.342227e-001	1.480766e-001	-1.214678e-001
7723999732	8.170056e-002	-2.032276e-001	-7.259424e-001	-3.758009e-001	-7.195614e-001	-3.778066e-001	1.538605e-001	-1.524222e-001
