!Agilent Technologies,E5071C,MY46108981,A.11.08
!Date: Sat Oct 19 16:28:03 2019
!Data & Calibration Information:
!Freq	S11:SOLT2(ON)	S21:SOLT2(ON)	S12:SOLT2(ON)	S22:SOLT2(ON)
!PortZ  Port1:50+j0    Port2:50+j0
!Above PortZ is port z conversion or system Z0 setting when saving the data.
!When reading, reference impedance value at option line is always used.
# Hz S RI R 50
200000000	-3.862519e-003	-3.011702e-003	9.131029e-001	-3.877767e-001	9.133395e-001	-3.881251e-001	-2.485181e-003	-3.530040e-003
249499998	-6.522801e-003	-1.270043e-003	8.694780e-001	-4.744750e-001	8.695163e-001	-4.746333e-001	-3.909142e-003	-2.353374e-003
298999996	-8.367439e-003	1.434945e-003	8.181059e-001	-5.562768e-001	8.175193e-001	-5.559470e-001	-5.680455e-003	-8.065122e-004
348499995	-1.061829e-002	3.785980e-003	7.587029e-001	-6.329822e-001	7.587812e-001	-6.333569e-001	-6.598520e-003	6.769663e-004
397999993	-1.148705e-002	7.726144e-003	6.929855e-001	-7.031301e-001	6.926383e-001	-7.032065e-001	-7.250710e-003	2.994323e-003
447499991	-1.194502e-002	1.123108e-002	6.198403e-001	-7.663407e-001	6.201539e-001	-7.666882e-001	-7.028241e-003	4.558023e-003
496999989	-1.092259e-002	1.460021e-002	5.420299e-001	-8.223483e-001	5.415871e-001	-8.225549e-001	-6.133729e-003	5.799503e-003
546499988	-8.823168e-003	1.813763e-002	4.586040e-001	-8.707003e-001	4.586548e-001	-8.709595e-001	-5.249705e-003	6.338427e-003
595999986	-7.096293e-003	2.064747e-002	3.715292e-001	-9.102553e-001	3.713113e-001	-9.101355e-001	-4.556897e-003	6.694683e-003
645499984	-6.026851e-003	2.299935e-002	2.810137e-001	-9.409457e-001	2.809958e-001	-9.410626e-001	-3.682495e-003	7.719310e-003
694999982	-2.943899e-003	2.434531e-002	1.878245e-001	-9.626631e-001	1.877203e-001	-9.632586e-001	-4.288139e-003	7.217759e-003
744499981	-5.827400e-004	2.592485e-002	9.245688e-002	-9.759164e-001	9.287075e-002	-9.750515e-001	-3.697271e-003	7.765302e-003
793999979	1.776519e-003	2.624764e-002	-1.757425e-003	-9.792015e-001	-2.548142e-003	-9.790576e-001	-3.596244e-003	7.964429e-003
843499977	4.016267e-003	2.736336e-002	-9.724930e-002	-9.733036e-001	-9.757789e-002	-9.730284e-001	-3.989751e-003	7.732932e-003
892999975	5.070537e-003	2.762413e-002	-1.910599e-001	-9.579713e-001	-1.914584e-001	-9.576997e-001	-4.626051e-003	8.326897e-003
942499974	6.350187e-003	2.824908e-002	-2.832110e-001	-9.342886e-001	-2.837527e-001	-9.345876e-001	-5.257721e-003	1.042191e-002
991999972	8.113011e-003	2.795724e-002	-3.718620e-001	-9.018665e-001	-3.724128e-001	-9.010609e-001	-6.716338e-003	1.102211e-002
1041499970	9.189307e-003	2.815293e-002	-4.577095e-001	-8.602193e-001	-4.568308e-001	-8.596860e-001	-7.684655e-003	1.280546e-002
1090999968	1.023028e-002	2.912532e-002	-5.386512e-001	-8.107963e-001	-5.389196e-001	-8.106687e-001	-8.065046e-003	1.537303e-002
1140499966	1.070314e-002	2.916344e-002	-6.141089e-001	-7.535896e-001	-6.132454e-001	-7.535260e-001	-8.098533e-003	1.799150e-002
1189999965	1.162241e-002	2.970738e-002	-6.834592e-001	-6.909125e-001	-6.837267e-001	-6.906715e-001	-6.946373e-003	2.119822e-002
1239499963	1.287401e-002	3.010559e-002	-7.476996e-001	-6.190298e-001	-7.463884e-001	-6.181870e-001	-6.139337e-003	2.464295e-002
1288999961	1.398463e-002	3.060155e-002	-8.020423e-001	-5.448203e-001	-8.024174e-001	-5.454035e-001	-3.539939e-003	2.755581e-002
1338499959	1.463735e-002	3.207766e-002	-8.511035e-001	-4.614574e-001	-8.506941e-001	-4.617403e-001	-1.655637e-004	3.067369e-002
1387999958	1.692940e-002	3.257568e-002	-8.900516e-001	-3.785333e-001	-8.902114e-001	-3.789342e-001	3.251298e-003	3.236204e-002
1437499956	1.861349e-002	3.335552e-002	-9.227819e-001	-2.886944e-001	-9.229815e-001	-2.889549e-001	8.162756e-003	3.424206e-002
1486999954	2.040619e-002	3.382300e-002	-9.431535e-001	-1.997217e-001	-9.435750e-001	-1.990505e-001	1.357525e-002	3.488723e-002
1536499952	2.209585e-002	3.428268e-002	-9.588582e-001	-1.052022e-001	-9.599802e-001	-1.050960e-001	1.878058e-002	3.409171e-002
1585999951	2.435414e-002	3.383135e-002	-9.622276e-001	-1.511653e-002	-9.628336e-001	-1.394379e-002	2.372625e-002	3.224253e-002
1635499949	2.680240e-002	3.364113e-002	-9.587627e-001	8.251739e-002	-9.595931e-001	8.162907e-002	2.881851e-002	2.997638e-002
1684999947	2.869641e-002	3.325255e-002	-9.461328e-001	1.704561e-001	-9.457036e-001	1.716822e-001	3.358488e-002	2.538992e-002
1734499945	3.060096e-002	3.214399e-002	-9.245162e-001	2.648987e-001	-9.239267e-001	2.643753e-001	3.738518e-002	2.009187e-002
1783999944	3.203165e-002	3.056570e-002	-8.933083e-001	3.478236e-001	-8.914255e-001	3.496691e-001	3.981484e-002	1.396782e-002
1833499942	3.350161e-002	2.892394e-002	-8.568685e-001	4.389245e-001	-8.561643e-001	4.378975e-001	4.163332e-002	7.031305e-003
1882999940	3.361101e-002	2.694692e-002	-8.075406e-001	5.116457e-001	-8.043188e-001	5.129768e-001	4.041684e-002	-2.636529e-004
1932499938	3.453351e-002	2.507220e-002	-7.561050e-001	5.956561e-001	-7.564260e-001	5.932885e-001	3.889753e-002	-7.567681e-003
1981999936	3.452922e-002	2.320236e-002	-6.920076e-001	6.574848e-001	-6.887037e-001	6.591514e-001	3.480537e-002	-1.450281e-002
2031499935	3.296392e-002	2.271483e-002	-6.269331e-001	7.293398e-001	-6.270787e-001	7.246775e-001	3.048229e-002	-2.048913e-002
2080999933	3.228686e-002	2.161767e-002	-5.491567e-001	7.785917e-001	-5.471700e-001	7.813204e-001	2.377376e-002	-2.574200e-002
2130499931	3.063384e-002	2.076368e-002	-4.729322e-001	8.356839e-001	-4.738509e-001	8.277570e-001	1.575720e-002	-2.905290e-002
2179999929	2.892544e-002	2.075983e-002	-3.890131e-001	8.700356e-001	-3.872186e-001	8.722366e-001	6.436052e-003	-3.099949e-002
2229499928	2.634805e-002	2.168810e-002	-2.999725e-001	9.078790e-001	-3.022937e-001	9.020312e-001	-2.755311e-003	-3.089846e-002
2278999926	2.435068e-002	2.319206e-002	-2.127229e-001	9.293653e-001	-2.137705e-001	9.281509e-001	-1.192460e-002	-2.830813e-002
2328499924	2.256931e-002	2.508000e-002	-1.173956e-001	9.445562e-001	-1.197936e-001	9.423119e-001	-2.153037e-002	-2.439089e-002
2377999922	2.198500e-002	2.775836e-002	-2.867748e-002	9.502271e-001	-3.117642e-002	9.497837e-001	-3.086628e-002	-1.742025e-002
2427499921	2.165196e-002	3.226257e-002	6.739803e-002	9.465767e-001	6.427900e-002	9.458879e-001	-3.733516e-002	-1.053244e-002
2476999919	2.269930e-002	3.615703e-002	1.527662e-001	9.341855e-001	1.541292e-001	9.352827e-001	-4.225745e-002	6.252620e-004
2526499917	2.372862e-002	4.060095e-002	2.492366e-001	9.136037e-001	2.429632e-001	9.128525e-001	-4.649934e-002	1.161144e-002
2575999915	2.629994e-002	4.458537e-002	3.295663e-001	8.844890e-001	3.298487e-001	8.859326e-001	-4.617058e-002	2.295996e-002
2625499914	2.941373e-002	4.890242e-002	4.182112e-001	8.493963e-001	4.168704e-001	8.466015e-001	-4.526597e-002	3.616641e-002
2674999912	3.401928e-002	5.160910e-002	4.902872e-001	7.961466e-001	4.863600e-001	8.062850e-001	-4.024129e-002	4.867321e-002
2724499910	3.984831e-002	5.476812e-002	5.756833e-001	7.573471e-001	5.774172e-001	7.459157e-001	-3.369085e-002	5.989757e-002
2773999908	4.619029e-002	5.623975e-002	6.295695e-001	6.828120e-001	6.262119e-001	6.975604e-001	-2.475262e-002	6.883891e-002
2823499906	5.344911e-002	5.828345e-002	7.082151e-001	6.319708e-001	7.099122e-001	6.224197e-001	-1.414646e-002	7.746559e-002
2872999905	6.077387e-002	5.785412e-002	7.502182e-001	5.471128e-001	7.457975e-001	5.564217e-001	-6.924978e-004	8.284116e-002
2922499903	6.790787e-002	5.758001e-002	8.099241e-001	4.871015e-001	8.181976e-001	4.832099e-001	1.210633e-002	8.656926e-002
2971999901	7.559949e-002	5.402208e-002	8.423341e-001	3.897146e-001	8.334597e-001	3.947836e-001	2.678942e-002	8.595424e-002
3021499899	8.246472e-002	5.107455e-002	8.897897e-001	3.232557e-001	8.979256e-001	3.192512e-001	4.085376e-002	8.452661e-002
3070999898	8.803545e-002	4.362765e-002	8.998370e-001	2.229832e-001	8.941552e-001	2.286638e-001	5.441470e-002	7.734918e-002
3120499896	9.340022e-002	3.798514e-002	9.335231e-001	1.406137e-001	9.349639e-001	1.390577e-001	6.669498e-002	6.924910e-002
3169999894	9.625225e-002	2.977748e-002	9.279544e-001	4.693753e-002	9.289614e-001	5.089656e-002	7.620023e-002	5.834600e-002
3219499892	9.839291e-002	2.280966e-002	9.404220e-001	-3.791427e-002	9.403514e-001	-3.916140e-002	8.414173e-002	4.568440e-002
3268999891	9.941067e-002	1.320356e-002	9.156444e-001	-1.396004e-001	9.191098e-001	-1.351452e-001	8.934774e-002	3.087592e-002
3318499889	9.950518e-002	7.028736e-003	9.219837e-001	-2.163562e-001	9.189422e-001	-2.169716e-001	9.199377e-002	1.739655e-002
3367999887	9.597900e-002	-2.292709e-003	8.651651e-001	-3.127550e-001	8.722654e-001	-3.085718e-001	8.980351e-002	1.105924e-004
3417499885	9.323680e-002	-8.438242e-003	8.612801e-001	-3.929027e-001	8.583336e-001	-3.919694e-001	8.565910e-002	-1.471588e-002
3466999884	8.614989e-002	-1.525786e-002	7.904302e-001	-4.759350e-001	8.003712e-001	-4.746893e-001	7.635673e-002	-2.796642e-002
3516499882	7.959269e-002	-1.870018e-002	7.615653e-001	-5.460890e-001	7.594040e-001	-5.426601e-001	6.548867e-002	-3.911242e-002
3565999880	7.043033e-002	-2.283578e-002	6.836988e-001	-6.237943e-001	6.948834e-001	-6.301175e-001	5.077501e-002	-4.881382e-002
3615499878	6.415715e-002	-2.183613e-002	6.392368e-001	-6.797832e-001	6.351421e-001	-6.734414e-001	3.686672e-002	-5.404647e-002
3664999876	5.518067e-002	-2.188842e-002	5.505888e-001	-7.412929e-001	5.609270e-001	-7.515402e-001	1.914915e-002	-5.600693e-002
3714499875	4.960075e-002	-1.835326e-002	4.903834e-001	-7.910167e-001	4.860958e-001	-7.860621e-001	3.834093e-003	-5.490076e-002
3763999873	4.296623e-002	-1.444784e-002	4.002176e-001	-8.329179e-001	4.104372e-001	-8.403808e-001	-1.392032e-002	-4.948012e-002
3813499871	3.945242e-002	-7.304456e-003	3.249672e-001	-8.662661e-001	3.172793e-001	-8.677888e-001	-2.868819e-002	-4.061390e-002
3862999869	3.534827e-002	2.430095e-004	2.285232e-001	-8.930026e-001	2.433842e-001	-8.990910e-001	-4.297230e-002	-2.814866e-002
3912499868	3.506161e-002	8.864982e-003	1.533782e-001	-9.138726e-001	1.392506e-001	-9.135799e-001	-5.246111e-002	-1.285538e-002
3961999866	3.719344e-002	1.842516e-002	5.026583e-002	-9.141826e-001	6.518652e-002	-9.246905e-001	-5.881134e-002	5.728444e-003
4011499864	3.886103e-002	2.770523e-002	-2.654617e-002	-9.277935e-001	-4.158590e-002	-9.235043e-001	-6.143354e-002	2.489290e-002
4060999862	4.698265e-002	3.682112e-002	-1.308454e-001	-9.025408e-001	-1.152145e-001	-9.125794e-001	-6.008949e-002	4.574874e-002
4110499861	5.300372e-002	4.591088e-002	-2.004567e-001	-9.056082e-001	-2.199983e-001	-9.032356e-001	-5.647128e-002	6.516315e-002
4159999859	6.534977e-002	5.039382e-002	-3.066452e-001	-8.511857e-001	-2.862652e-001	-8.633950e-001	-4.392824e-002	8.427599e-002
4209499857	7.727715e-002	5.704230e-002	-3.711014e-001	-8.529416e-001	-3.978215e-001	-8.457010e-001	-3.327302e-002	1.013667e-001
4258999855	9.004991e-002	5.647044e-002	-4.611676e-001	-7.697877e-001	-4.415910e-001	-7.867592e-001	-1.199886e-002	1.146472e-001
4308499854	1.043632e-001	5.713804e-002	-5.307424e-001	-7.577957e-001	-5.526794e-001	-7.493403e-001	6.409013e-003	1.259812e-001
4357999852	1.170129e-001	5.169158e-002	-5.987118e-001	-6.694455e-001	-5.928424e-001	-6.824184e-001	2.816295e-002	1.297664e-001
4407499850	1.312410e-001	4.727844e-002	-6.616279e-001	-6.383097e-001	-6.771203e-001	-6.331778e-001	5.185737e-002	1.337383e-001
4456999848	1.432641e-001	3.678299e-002	-7.172216e-001	-5.324377e-001	-7.147853e-001	-5.401984e-001	7.484087e-002	1.280968e-001
4506499846	1.563650e-001	2.691088e-002	-7.699830e-001	-5.048634e-001	-7.885153e-001	-4.939829e-001	9.848344e-002	1.237959e-001
4555999845	1.642033e-001	1.200212e-002	-8.003307e-001	-3.766781e-001	-7.983908e-001	-3.891209e-001	1.194278e-001	1.099469e-001
4605499843	1.724064e-001	-3.411604e-003	-8.452816e-001	-3.468586e-001	-8.595178e-001	-3.266822e-001	1.394908e-001	9.533963e-002
4654999841	1.742910e-001	-2.184155e-002	-8.650586e-001	-2.131805e-001	-8.709634e-001	-2.245854e-001	1.530525e-001	7.314616e-002
4704499839	1.760153e-001	-3.868957e-002	-8.751165e-001	-1.839232e-001	-8.842139e-001	-1.627861e-001	1.656793e-001	5.185220e-002
4753999838	1.714587e-001	-5.784930e-002	-8.992834e-001	-3.465995e-002	-9.027403e-001	-3.686867e-002	1.712054e-001	2.495502e-002
4803499836	1.680573e-001	-7.374927e-002	-8.880774e-001	-1.978348e-002	-8.927348e-001	2.677618e-004	1.744091e-001	2.241530e-003
4852999834	1.591079e-001	-9.101397e-002	-8.923830e-001	1.347800e-001	-8.908686e-001	1.356139e-001	1.710580e-001	-2.465878e-002
4902499832	1.512507e-001	-1.044626e-001	-8.673339e-001	1.625095e-001	-8.597802e-001	1.831262e-001	1.663619e-001	-4.769601e-002
4951999831	1.388836e-001	-1.180660e-001	-8.635028e-001	2.896502e-001	-8.669506e-001	2.872636e-001	1.547270e-001	-7.068459e-002
5001499829	1.259115e-001	-1.258732e-001	-8.041954e-001	3.350325e-001	-7.883757e-001	3.517543e-001	1.398564e-001	-8.833317e-002
5050999827	1.098398e-001	-1.327028e-001	-7.986109e-001	4.441812e-001	-8.039948e-001	4.425930e-001	1.200265e-001	-1.056320e-001
5100499825	9.334697e-002	-1.344913e-001	-7.286158e-001	4.904205e-001	-7.068777e-001	4.994688e-001	9.723476e-002	-1.153327e-001
5149999824	7.628351e-002	-1.342568e-001	-6.933899e-001	5.803332e-001	-6.959060e-001	5.767334e-001	7.295614e-002	-1.219305e-001
5199499822	6.132662e-002	-1.296686e-001	-6.194014e-001	6.354642e-001	-6.041299e-001	6.398100e-001	4.767152e-002	-1.215977e-001
5248999820	4.754167e-002	-1.224397e-001	-5.723801e-001	6.967291e-001	-5.690514e-001	6.909148e-001	2.348787e-002	-1.170602e-001
5298499818	3.582544e-002	-1.123166e-001	-4.776290e-001	7.441909e-001	-4.684931e-001	7.464395e-001	1.387556e-003	-1.067161e-001
5347999816	2.689403e-002	-1.014796e-001	-4.256287e-001	7.990890e-001	-4.246574e-001	7.910668e-001	-1.933261e-002	-9.369290e-002
5397499815	2.171167e-002	-8.745453e-002	-3.274511e-001	8.222775e-001	-3.162614e-001	8.219315e-001	-3.567253e-002	-7.485530e-002
5446999813	1.981812e-002	-7.456959e-002	-2.544816e-001	8.642405e-001	-2.584663e-001	8.579650e-001	-4.794654e-002	-5.248419e-002
5496499811	2.121690e-002	-5.792569e-002	-1.615683e-001	8.732049e-001	-1.491116e-001	8.764350e-001	-5.464192e-002	-2.784851e-002
5545999809	2.552339e-002	-4.506911e-002	-7.465539e-002	8.939136e-001	-8.222696e-002	8.804690e-001	-5.505610e-002	-2.917635e-003
5595499808	3.462812e-002	-3.168666e-002	6.949020e-003	8.854274e-001	2.606611e-002	9.008511e-001	-5.018609e-002	2.310140e-002
5644999806	4.510055e-002	-2.291669e-002	1.106003e-001	8.879116e-001	9.819498e-002	8.633486e-001	-3.848528e-002	4.615207e-002
5694499804	6.068052e-002	-1.571507e-002	1.744026e-001	8.668107e-001	1.971845e-001	8.854646e-001	-2.394597e-002	6.910145e-002
5743999802	7.785121e-002	-1.510281e-002	2.851700e-001	8.435869e-001	2.771539e-001	8.177016e-001	-5.773211e-004	8.635315e-002
5793499801	9.631267e-002	-1.625278e-002	3.393160e-001	8.098017e-001	3.519303e-001	8.230753e-001	2.459317e-002	1.000915e-001
5842999799	1.148369e-001	-2.343712e-002	4.496215e-001	7.775269e-001	4.506516e-001	7.443612e-001	5.478488e-002	1.079654e-001
5892499797	1.327549e-001	-3.358256e-002	4.814949e-001	7.188429e-001	4.856587e-001	7.278200e-001	8.396522e-002	1.080324e-001
5941999795	1.493717e-001	-4.752128e-002	6.028151e-001	6.664174e-001	5.944043e-001	6.391391e-001	1.165079e-001	1.032373e-001
5991499793	1.625611e-001	-6.376226e-002	6.074399e-001	6.119890e-001	6.178176e-001	6.037449e-001	1.433238e-001	9.384699e-002
6040999792	1.739109e-001	-8.266805e-002	7.163612e-001	5.333072e-001	6.910032e-001	5.189305e-001	1.714457e-001	7.628531e-002
6090499790	1.815916e-001	-1.055817e-001	7.134070e-001	4.636941e-001	7.191736e-001	4.504729e-001	1.950723e-001	5.527431e-002
6139999788	1.848019e-001	-1.295436e-001	8.090505e-001	3.980300e-001	7.765192e-001	3.878173e-001	2.148528e-001	2.833771e-002
6189499786	1.835237e-001	-1.552448e-001	7.721208e-001	3.011416e-001	7.782397e-001	2.995741e-001	2.296619e-001	-2.258448e-003
6238999785	1.777881e-001	-1.816544e-001	8.798830e-001	2.335252e-001	8.326913e-001	2.197079e-001	2.391094e-001	-3.756271e-002
6288499783	1.668783e-001	-2.053846e-001	8.100986e-001	1.378274e-001	8.203122e-001	1.507387e-001	2.399967e-001	-7.151596e-002
6337999781	1.512410e-001	-2.271481e-001	8.833842e-001	6.981096e-002	8.409153e-001	6.648227e-002	2.352316e-001	-1.066761e-001
6387499779	1.328243e-001	-2.461249e-001	8.303599e-001	-4.732952e-002	8.316408e-001	-2.692101e-002	2.226441e-001	-1.394797e-001
6436999778	1.110889e-001	-2.618093e-001	8.644900e-001	-7.148311e-002	8.464197e-001	-6.850148e-002	2.075773e-001	-1.701115e-001
6486499776	8.749561e-002	-2.732401e-001	7.981294e-001	-2.237259e-001	7.914215e-001	-1.974030e-001	1.820582e-001	-1.959363e-001
6535999774	6.246058e-002	-2.840038e-001	8.262912e-001	-2.326761e-001	8.230230e-001	-2.259171e-001	1.588572e-001	-2.218231e-001
6585499772	3.526631e-002	-2.895153e-001	7.470688e-001	-3.648890e-001	7.476740e-001	-3.400069e-001	1.266699e-001	-2.395224e-001
6634999771	8.344514e-003	-2.928180e-001	7.407531e-001	-3.877673e-001	7.414697e-001	-3.747276e-001	9.466131e-002	-2.556466e-001
6684499769	-2.000892e-002	-2.899689e-001	6.797601e-001	-5.030303e-001	6.919808e-001	-4.888193e-001	5.755325e-002	-2.624728e-001
6733999767	-4.402340e-002	-2.818462e-001	6.456582e-001	-5.089544e-001	6.490246e-001	-4.974357e-001	2.185269e-002	-2.629538e-001
6783499765	-6.826876e-002	-2.673286e-001	5.664319e-001	-6.246731e-001	5.820460e-001	-6.164986e-001	-1.316486e-002	-2.539139e-001
6832999763	-8.493888e-002	-2.529209e-001	5.410374e-001	-6.281118e-001	5.474255e-001	-6.256640e-001	-4.443976e-002	-2.403273e-001
6882499762	-9.946810e-002	-2.338419e-001	4.411417e-001	-7.061673e-001	4.546559e-001	-6.988369e-001	-7.117803e-002	-2.201703e-001
6931999760	-1.112280e-001	-2.146362e-001	4.001142e-001	-7.285558e-001	4.095148e-001	-7.363172e-001	-9.543069e-002	-1.960846e-001
6981499758	-1.176510e-001	-1.933548e-001	3.126535e-001	-7.823149e-001	3.220869e-001	-7.778704e-001	-1.135587e-001	-1.674860e-001
7030999756	-1.207018e-001	-1.731843e-001	2.466564e-001	-7.869939e-001	2.519368e-001	-7.934777e-001	-1.248712e-001	-1.359752e-001
7080499755	-1.176623e-001	-1.521229e-001	1.568130e-001	-8.389330e-001	1.613521e-001	-8.431618e-001	-1.310992e-001	-1.023087e-001
7129999753	-1.108689e-001	-1.339533e-001	8.643243e-002	-8.276446e-001	9.241295e-002	-8.247905e-001	-1.256170e-001	-7.002523e-002
7179499751	-9.748077e-002	-1.173104e-001	-7.359357e-003	-8.514468e-001	-8.795431e-003	-8.619477e-001	-1.143714e-001	-3.765812e-002
7228999749	-8.208763e-002	-1.070974e-001	-9.036390e-002	-8.394505e-001	-8.643644e-002	-8.326337e-001	-9.514092e-002	-9.686489e-003
7278499748	-6.227541e-002	-9.978774e-002	-1.759021e-001	-8.318689e-001	-1.684431e-001	-8.345765e-001	-7.092614e-002	1.358754e-002
7327999746	-4.247390e-002	-9.774142e-002	-2.659188e-001	-8.100644e-001	-2.712198e-001	-8.066028e-001	-3.972638e-002	3.120121e-002
7377499744	-2.198381e-002	-1.015100e-001	-3.437229e-001	-7.732460e-001	-3.255213e-001	-7.767083e-001	-7.018226e-003	4.037458e-002
7426999742	-3.330900e-003	-1.118870e-001	-4.319554e-001	-7.403280e-001	-4.356317e-001	-7.371009e-001	3.008976e-002	4.284811e-002
7476499741	1.159358e-002	-1.264824e-001	-4.956850e-001	-6.795392e-001	-4.864465e-001	-6.843107e-001	6.535032e-002	3.462104e-002
7525999739	2.457135e-002	-1.456771e-001	-5.718074e-001	-6.286968e-001	-5.617960e-001	-6.334711e-001	9.983728e-002	1.767861e-002
7575499737	3.261697e-002	-1.695618e-001	-6.300256e-001	-5.523633e-001	-6.280398e-001	-5.539221e-001	1.310084e-001	-7.584506e-003
7624999735	3.474844e-002	-1.957899e-001	-6.791013e-001	-4.961187e-001	-6.657874e-001	-5.067028e-001	1.557214e-001	-3.738002e-002
7674499733	3.281373e-002	-2.244705e-001	-7.219710e-001	-3.915243e-001	-7.216263e-001	-4.034027e-001	1.737203e-001	-7.644613e-002
7723999732	2.398977e-002	-2.513928e-001	-7.544776e-001	-3.419078e-001	-7.500303e-001	-3.482471e-001	1.856430e-001	-1.165031e-001
