!Agilent Technologies,E5071C,MY46108981,A.11.08
!Date: Sat Oct 19 16:26:18 2019
!Data & Calibration Information:
!Freq	S11:SOLT2(ON)	S21:SOLT2(ON)	S12:SOLT2(ON)	S22:SOLT2(ON)
!PortZ  Port1:50+j0    Port2:50+j0
!Above PortZ is port z conversion or system Z0 setting when saving the data.
!When reading, reference impedance value at option line is always used.
# Hz S RI R 50
200000000	6.762119e-003	1.748848e-002	9.141023e-001	-3.841826e-001	9.142898e-001	-3.847027e-001	8.974177e-003	1.582402e-002
249499998	9.183258e-003	2.175002e-002	8.709484e-001	-4.702374e-001	8.711506e-001	-4.709001e-001	1.244361e-002	1.987996e-002
298999996	1.287460e-002	2.682771e-002	8.208915e-001	-5.521815e-001	8.207414e-001	-5.525759e-001	1.630316e-002	2.324229e-002
348499995	1.731357e-002	3.020141e-002	7.615501e-001	-6.286401e-001	7.620746e-001	-6.286507e-001	2.188230e-002	2.445975e-002
397999993	2.223166e-002	3.348364e-002	6.977803e-001	-6.980472e-001	6.971537e-001	-6.985070e-001	2.715113e-002	2.593121e-002
447499991	2.823898e-002	3.532268e-002	6.246319e-001	-7.616971e-001	6.250768e-001	-7.622184e-001	3.348884e-002	2.549675e-002
496999989	3.472782e-002	3.537490e-002	5.489461e-001	-8.168355e-001	5.482127e-001	-8.166670e-001	3.986344e-002	2.301166e-002
546499988	4.198383e-002	3.479384e-002	4.655164e-001	-8.663779e-001	4.653347e-001	-8.662469e-001	4.523910e-002	1.894955e-002
595999986	4.788299e-002	3.234750e-002	3.803786e-001	-9.046423e-001	3.799054e-001	-9.044834e-001	5.006982e-002	1.393287e-002
645499984	5.259909e-002	2.874325e-002	2.903071e-001	-9.371763e-001	2.908017e-001	-9.362987e-001	5.398234e-002	8.652697e-003
694999982	5.765568e-002	2.356664e-002	1.990986e-001	-9.574741e-001	1.980938e-001	-9.588976e-001	5.494138e-002	9.453417e-004
744499981	6.114152e-002	1.843381e-002	1.046084e-001	-9.726358e-001	1.060879e-001	-9.718699e-001	5.532300e-002	-5.693349e-003
793999979	6.317031e-002	1.225712e-002	1.276687e-002	-9.766603e-001	1.096175e-002	-9.766012e-001	5.487350e-002	-1.275611e-002
843499977	6.415531e-002	6.356821e-003	-8.283487e-002	-9.726181e-001	-8.219692e-002	-9.724372e-001	5.135964e-002	-2.017989e-002
892999975	6.271457e-002	3.793580e-004	-1.737209e-001	-9.588623e-001	-1.749540e-001	-9.586722e-001	4.702809e-002	-2.516627e-002
942499974	6.044985e-002	-4.466472e-003	-2.667661e-001	-9.374982e-001	-2.659165e-001	-9.375023e-001	4.169475e-002	-2.920710e-002
991999972	5.748928e-002	-9.610738e-003	-3.524362e-001	-9.062175e-001	-3.538462e-001	-9.057165e-001	3.444689e-002	-3.300679e-002
1041499970	5.339642e-002	-1.330714e-002	-4.402102e-001	-8.694665e-001	-4.389447e-001	-8.686050e-001	2.729234e-002	-3.470857e-002
1090999968	4.862112e-002	-1.530498e-002	-5.194716e-001	-8.204244e-001	-5.204477e-001	-8.196673e-001	1.963935e-002	-3.425074e-002
1140499966	4.321215e-002	-1.668216e-002	-5.968217e-001	-7.686498e-001	-5.948123e-001	-7.677991e-001	1.252660e-002	-3.255245e-002
1189999965	3.773084e-002	-1.657075e-002	-6.672040e-001	-7.046428e-001	-6.682174e-001	-7.046075e-001	6.557084e-003	-2.846810e-002
1239499963	3.310406e-002	-1.542558e-002	-7.312660e-001	-6.394727e-001	-7.293588e-001	-6.384358e-001	1.099963e-003	-2.364017e-002
1288999961	2.830143e-002	-1.277094e-002	-7.895842e-001	-5.626328e-001	-7.895034e-001	-5.633897e-001	-3.280693e-003	-1.756461e-002
1338499959	2.476579e-002	-9.164530e-003	-8.389360e-001	-4.851909e-001	-8.372138e-001	-4.850875e-001	-5.192074e-003	-9.698237e-003
1387999958	2.233085e-002	-4.549527e-003	-8.810690e-001	-4.010766e-001	-8.809541e-001	-4.021051e-001	-5.976601e-003	-3.099668e-003
1437499956	2.090931e-002	1.725590e-004	-9.145769e-001	-3.147046e-001	-9.143895e-001	-3.146341e-001	-4.275815e-003	4.688079e-003
1486999954	2.093630e-002	5.277666e-003	-9.390510e-001	-2.248626e-001	-9.395044e-001	-2.254632e-001	-6.567603e-004	1.229448e-002
1536499952	2.162921e-002	1.087592e-002	-9.564601e-001	-1.326669e-001	-9.563442e-001	-1.327635e-001	3.929277e-003	1.769108e-002
1585999951	2.419127e-002	1.545047e-002	-9.621885e-001	-4.135822e-002	-9.632555e-001	-4.217197e-002	1.034693e-002	2.230054e-002
1635499949	2.777645e-002	2.010150e-002	-9.617639e-001	5.361143e-002	-9.616272e-001	5.295920e-002	1.773704e-002	2.600310e-002
1684999947	3.193172e-002	2.357628e-002	-9.504935e-001	1.422698e-001	-9.510994e-001	1.427436e-001	2.625900e-002	2.682896e-002
1734499945	3.741658e-002	2.625602e-002	-9.328667e-001	2.359278e-001	-9.316239e-001	2.355969e-001	3.472646e-002	2.577922e-002
1783999944	4.278782e-002	2.709552e-002	-9.025784e-001	3.187398e-001	-9.024304e-001	3.203080e-001	4.275319e-002	2.273612e-002
1833499942	4.862829e-002	2.702940e-002	-8.711684e-001	4.107570e-001	-8.698855e-001	4.099754e-001	5.109715e-002	1.811822e-002
1882999940	5.424569e-002	2.545340e-002	-8.217260e-001	4.814282e-001	-8.204388e-001	4.829633e-001	5.690934e-002	1.041977e-002
1932499938	6.018126e-002	2.348247e-002	-7.780973e-001	5.691761e-001	-7.765063e-001	5.675183e-001	6.200704e-002	2.737661e-003
1981999936	6.497022e-002	1.943554e-002	-7.117601e-001	6.293440e-001	-7.102608e-001	6.308059e-001	6.450776e-002	-7.218322e-003
2031499935	6.885451e-002	1.635185e-002	-6.573023e-001	7.056184e-001	-6.551747e-001	7.013402e-001	6.674458e-002	-1.680993e-002
2080999933	7.158628e-002	1.139870e-002	-5.740790e-001	7.537835e-001	-5.744432e-001	7.570710e-001	6.488624e-002	-2.746017e-002
2130499931	7.404690e-002	5.763389e-003	-5.104824e-001	8.173273e-001	-5.094560e-001	8.075280e-001	6.123211e-002	-3.720167e-002
2179999929	7.468999e-002	4.057042e-004	-4.214885e-001	8.493321e-001	-4.205148e-001	8.536195e-001	5.434918e-002	-4.645923e-002
2229499928	7.385313e-002	-5.137339e-003	-3.409652e-001	8.974520e-001	-3.423925e-001	8.871307e-001	4.713663e-002	-5.443602e-002
2278999926	7.181462e-002	-1.057728e-002	-2.534890e-001	9.164516e-001	-2.547504e-001	9.192466e-001	3.719550e-002	-6.059235e-002
2328499924	6.973277e-002	-1.486862e-002	-1.601681e-001	9.420749e-001	-1.630060e-001	9.332707e-001	2.626385e-002	-6.469500e-002
2377999922	6.674206e-002	-1.893904e-002	-7.138118e-002	9.463912e-001	-7.451626e-002	9.508416e-001	1.364202e-002	-6.666353e-002
2427499921	6.308473e-002	-2.073932e-002	2.145852e-002	9.546511e-001	1.721529e-002	9.467645e-001	1.910699e-003	-6.687009e-002
2476999919	5.912221e-002	-2.297834e-002	1.117813e-001	9.368170e-001	1.087210e-001	9.430608e-001	-9.549975e-003	-6.218458e-002
2526499917	5.519604e-002	-2.337240e-002	2.022292e-001	9.316311e-001	1.965418e-001	9.277623e-001	-2.127134e-002	-5.704744e-002
2575999915	5.129019e-002	-2.336548e-002	2.905596e-001	8.986102e-001	2.868925e-001	9.050489e-001	-2.986912e-002	-4.925789e-002
2625499914	4.764207e-002	-2.163691e-002	3.724536e-001	8.712199e-001	3.708798e-001	8.684020e-001	-3.826698e-002	-3.827918e-002
2674999912	4.398528e-002	-2.067503e-002	4.599561e-001	8.235787e-001	4.540749e-001	8.374323e-001	-4.386836e-002	-2.604562e-002
2724499910	4.309158e-002	-1.726418e-002	5.275819e-001	7.849823e-001	5.303357e-001	7.754131e-001	-4.645750e-002	-1.366675e-002
2773999908	4.092037e-002	-1.473009e-002	6.071290e-001	7.175009e-001	6.040774e-001	7.355424e-001	-4.725744e-002	-9.247558e-004
2823499906	4.201373e-002	-1.103925e-002	6.671186e-001	6.674978e-001	6.706113e-001	6.588868e-001	-4.439121e-002	1.074824e-002
2872999905	4.274764e-002	-8.493249e-003	7.307004e-001	5.896922e-001	7.271889e-001	6.022462e-001	-3.905754e-002	2.297740e-002
2922499903	4.473969e-002	-5.122905e-003	7.790231e-001	5.256657e-001	7.896806e-001	5.210449e-001	-3.199119e-002	3.235364e-002
2971999901	4.741953e-002	-3.154022e-003	8.287612e-001	4.388092e-001	8.218589e-001	4.483293e-001	-2.222384e-002	4.090631e-002
3021499899	5.051703e-002	-1.170398e-003	8.657114e-001	3.686061e-001	8.764941e-001	3.614370e-001	-1.093028e-002	4.728626e-002
3070999898	5.352479e-002	-1.296463e-003	8.937212e-001	2.732318e-001	8.911903e-001	2.818309e-001	1.737089e-003	5.042232e-002
3120499896	5.790935e-002	-9.657073e-004	9.214485e-001	1.936884e-001	9.249631e-001	1.884581e-001	1.409335e-002	5.064504e-002
3169999894	6.103027e-002	-2.418923e-003	9.290459e-001	9.931398e-002	9.307507e-001	1.032246e-001	2.660059e-002	4.783906e-002
3219499892	6.392451e-002	-3.795130e-003	9.391213e-001	1.544910e-002	9.415810e-001	1.147554e-002	3.792806e-002	4.262152e-002
3268999891	6.704162e-002	-7.765541e-003	9.282948e-001	-8.483552e-002	9.293676e-001	-8.022951e-002	4.848416e-002	3.448857e-002
3318499889	7.020204e-002	-9.440808e-003	9.283822e-001	-1.619771e-001	9.295801e-001	-1.667164e-001	5.635589e-002	2.540991e-002
3367999887	7.120428e-002	-1.499962e-002	8.886526e-001	-2.611180e-001	8.925798e-001	-2.553612e-001	6.201869e-002	1.263528e-002
3417499885	7.250301e-002	-1.862422e-002	8.804669e-001	-3.381814e-001	8.787360e-001	-3.419949e-001	6.500105e-002	7.311495e-005
3466999884	7.032236e-002	-2.347840e-002	8.222931e-001	-4.267731e-001	8.285382e-001	-4.248071e-001	6.382611e-002	-1.381753e-002
3516499882	6.891605e-002	-2.627408e-002	7.939263e-001	-4.969125e-001	7.920494e-001	-4.964149e-001	6.030036e-002	-2.626732e-002
3565999880	6.478214e-002	-3.074419e-002	7.239645e-001	-5.798871e-001	7.324645e-001	-5.843161e-001	5.251513e-002	-3.941867e-002
3615499878	6.293081e-002	-3.187075e-002	6.820403e-001	-6.357010e-001	6.797629e-001	-6.318160e-001	4.410450e-002	-4.880090e-002
3664999876	5.809249e-002	-3.460184e-002	5.982152e-001	-7.051279e-001	6.073138e-001	-7.138547e-001	3.111575e-002	-5.768579e-002
3714499875	5.619929e-002	-3.482758e-002	5.439031e-001	-7.547780e-001	5.402517e-001	-7.510426e-001	1.874520e-002	-6.304441e-002
3763999873	5.177015e-002	-3.514346e-002	4.554411e-001	-8.059379e-001	4.655270e-001	-8.136087e-001	2.728822e-003	-6.556351e-002
3813499871	4.987381e-002	-3.350193e-002	3.851502e-001	-8.386259e-001	3.767657e-001	-8.410248e-001	-1.243038e-002	-6.501994e-002
3862999869	4.588754e-002	-3.121809e-002	2.903643e-001	-8.796176e-001	3.053212e-001	-8.866140e-001	-2.973163e-002	-6.103182e-002
3912499868	4.524024e-002	-2.804692e-002	2.202124e-001	-8.930531e-001	2.048738e-001	-8.962442e-001	-4.254037e-002	-5.295150e-002
3961999866	4.435522e-002	-2.319262e-002	1.147057e-001	-9.156078e-001	1.288878e-001	-9.250390e-001	-5.607701e-002	-4.061840e-002
4011499864	4.386374e-002	-1.947404e-002	4.520025e-002	-9.188267e-001	2.852310e-002	-9.193408e-001	-6.532656e-002	-2.691102e-002
4060999862	4.675553e-002	-1.441959e-002	-6.302043e-002	-9.196636e-001	-4.918044e-002	-9.254063e-001	-7.326293e-002	-1.000362e-002
4110499861	4.862190e-002	-9.228991e-003	-1.279441e-001	-9.078475e-001	-1.515880e-001	-9.112740e-001	-7.766476e-002	6.498109e-003
4159999859	5.450004e-002	-6.777679e-003	-2.419843e-001	-8.873580e-001	-2.215845e-001	-8.922247e-001	-7.607757e-002	2.631519e-002
4209499857	6.058517e-002	-2.087314e-003	-2.972241e-001	-8.686152e-001	-3.291330e-001	-8.649822e-001	-7.511157e-002	4.451349e-002
4258999855	6.644051e-002	-1.503777e-003	-4.045366e-001	-8.175274e-001	-3.836047e-001	-8.299047e-001	-6.417640e-002	6.397487e-002
4308499854	7.473250e-002	-5.018353e-004	-4.621491e-001	-7.937772e-001	-4.876278e-001	-7.848671e-001	-5.391211e-002	7.989180e-002
4357999852	8.140147e-002	-2.364945e-003	-5.492002e-001	-7.264842e-001	-5.399351e-001	-7.345721e-001	-3.927398e-002	9.219968e-002
4407499850	9.035163e-002	-4.803980e-003	-6.033700e-001	-6.878041e-001	-6.249773e-001	-6.817936e-001	-2.203940e-002	1.044100e-001
4456999848	9.742101e-002	-1.019664e-002	-6.807516e-001	-6.026066e-001	-6.690315e-001	-6.058278e-001	-2.022748e-003	1.092122e-001
4506499846	1.056017e-001	-1.554571e-002	-7.199516e-001	-5.636148e-001	-7.461135e-001	-5.515487e-001	1.873395e-002	1.145600e-001
4555999845	1.108313e-001	-2.430021e-002	-7.815088e-001	-4.546790e-001	-7.681623e-001	-4.636851e-001	3.971871e-002	1.123964e-001
4605499843	1.165427e-001	-3.423248e-002	-8.110368e-001	-4.129698e-001	-8.303393e-001	-3.953440e-001	6.051586e-002	1.082242e-001
4654999841	1.182915e-001	-4.541307e-002	-8.579477e-001	-2.977104e-001	-8.511480e-001	-3.023459e-001	8.018939e-002	9.652196e-002
4704499839	1.197492e-001	-5.663713e-002	-8.591558e-001	-2.481985e-001	-8.752643e-001	-2.362838e-001	9.687860e-002	8.384370e-002
4753999838	1.168751e-001	-6.918076e-002	-9.071938e-001	-1.253214e-001	-8.945049e-001	-1.202382e-001	1.109668e-001	6.511963e-002
4803499836	1.149016e-001	-7.993775e-002	-8.835593e-001	-8.337183e-002	-8.989046e-001	-7.248568e-002	1.214468e-001	4.846540e-002
4852999834	1.095592e-001	-9.197538e-002	-9.142265e-001	4.775935e-002	-8.995143e-001	5.277062e-002	1.282920e-001	2.597471e-002
4902499832	1.043411e-001	-1.021962e-001	-8.811117e-001	9.681657e-002	-8.815619e-001	1.082513e-001	1.314030e-001	6.450209e-003
4951999831	9.652300e-002	-1.117103e-001	-8.914492e-001	2.077799e-001	-8.882218e-001	2.115194e-001	1.304326e-001	-1.562588e-002
5001499829	8.788728e-002	-1.175263e-001	-8.367847e-001	2.728540e-001	-8.257549e-001	2.788410e-001	1.240349e-001	-3.431351e-002
5050999827	7.678958e-002	-1.228208e-001	-8.381546e-001	3.677562e-001	-8.384558e-001	3.726798e-001	1.140859e-001	-5.467224e-002
5100499825	6.500349e-002	-1.250501e-001	-7.719988e-001	4.304062e-001	-7.567294e-001	4.334388e-001	9.892573e-002	-6.974978e-002
5149999824	5.271179e-002	-1.248254e-001	-7.452007e-001	5.150150e-001	-7.458716e-001	5.149021e-001	8.135726e-002	-8.310640e-002
5199499822	4.173764e-002	-1.226531e-001	-6.771015e-001	5.807067e-001	-6.636751e-001	5.813663e-001	6.065898e-002	-9.023816e-002
5248999820	3.130318e-002	-1.176241e-001	-6.337571e-001	6.407146e-001	-6.315461e-001	6.389362e-001	3.999804e-002	-9.473512e-002
5298499818	2.293580e-002	-1.107907e-001	-5.464764e-001	7.006838e-001	-5.383844e-001	6.983418e-001	1.888194e-002	-9.274151e-002
5347999816	1.596347e-002	-1.038144e-001	-5.004224e-001	7.540011e-001	-4.974959e-001	7.498715e-001	-2.279484e-003	-8.880570e-002
5397499815	1.104568e-002	-9.403490e-002	-4.035082e-001	7.898442e-001	-3.952923e-001	7.862851e-001	-2.150290e-002	-7.821197e-002
5446999813	8.773203e-003	-8.502166e-002	-3.393302e-001	8.357562e-001	-3.414351e-001	8.315757e-001	-3.852513e-002	-6.411238e-002
5496499811	8.984554e-003	-7.242529e-002	-2.444382e-001	8.539228e-001	-2.353992e-001	8.546092e-001	-5.136445e-002	-4.600497e-002
5545999809	1.105849e-002	-6.312298e-002	-1.685501e-001	8.830174e-001	-1.732054e-001	8.710261e-001	-6.029517e-002	-2.552867e-002
5595499808	1.678280e-002	-5.276276e-002	-7.679661e-002	8.805878e-001	-6.383626e-002	8.938830e-001	-6.406816e-002	-2.821451e-003
5644999806	2.321483e-002	-4.617701e-002	1.253860e-002	8.988475e-001	2.142751e-003	8.744005e-001	-6.242043e-002	1.995255e-002
5694499804	3.517873e-002	-4.020374e-002	8.854668e-002	8.769431e-001	1.070400e-001	8.972083e-001	-5.746492e-002	4.391851e-002
5743999802	4.666724e-002	-3.932361e-002	1.892074e-001	8.755806e-001	1.817762e-001	8.482820e-001	-4.448218e-002	6.559789e-002
5793499801	6.063134e-002	-3.924823e-002	2.562937e-001	8.392056e-001	2.653307e-001	8.563673e-001	-2.797317e-002	8.493750e-002
5842999799	7.386881e-002	-4.385266e-002	3.547946e-001	8.269280e-001	3.592476e-001	7.935113e-001	-6.264653e-003	1.021671e-001
5892499797	8.824820e-002	-5.082482e-002	4.088594e-001	7.649206e-001	4.096468e-001	7.821093e-001	1.756592e-002	1.117642e-001
5941999795	1.008886e-001	-6.050797e-002	5.169096e-001	7.406872e-001	5.134019e-001	7.057862e-001	4.595575e-002	1.181793e-001
5991499793	1.118836e-001	-7.233224e-002	5.436128e-001	6.713103e-001	5.524777e-001	6.753648e-001	7.167791e-002	1.190510e-001
6040999792	1.212310e-001	-8.563072e-002	6.478924e-001	6.233504e-001	6.294607e-001	6.004701e-001	1.004377e-001	1.139523e-001
6090499790	1.282790e-001	-1.031537e-001	6.669124e-001	5.418443e-001	6.689560e-001	5.373604e-001	1.269515e-001	1.038976e-001
6139999788	1.312549e-001	-1.216947e-001	7.525934e-001	4.981557e-001	7.328500e-001	4.779097e-001	1.521624e-001	8.768802e-002
6189499786	1.321680e-001	-1.413803e-001	7.500731e-001	3.857254e-001	7.488825e-001	3.948110e-001	1.741020e-001	6.624711e-002
6238999785	1.279849e-001	-1.621909e-001	8.409648e-001	3.470691e-001	8.076184e-001	3.186090e-001	1.934223e-001	3.960082e-002
6288499783	1.213024e-001	-1.816635e-001	8.074368e-001	2.278404e-001	8.093463e-001	2.487257e-001	2.045659e-001	1.096706e-002
6337999781	1.091516e-001	-1.994262e-001	8.701806e-001	1.792015e-001	8.381811e-001	1.656288e-001	2.119381e-001	-2.091384e-002
6387499779	9.583064e-002	-2.159078e-001	8.511959e-001	5.124826e-002	8.404570e-001	7.284706e-002	2.108115e-001	-5.311980e-002
6436999778	7.837282e-002	-2.292046e-001	8.669786e-001	2.650249e-002	8.603581e-001	2.556012e-002	2.067317e-001	-8.470070e-002
6486499776	6.035955e-002	-2.399916e-001	8.432739e-001	-1.291765e-001	8.215739e-001	-1.010703e-001	1.919761e-001	-1.146307e-001
6535999774	4.019192e-002	-2.493645e-001	8.482490e-001	-1.382732e-001	8.528756e-001	-1.362088e-001	1.788529e-001	-1.443489e-001
6585499772	1.911291e-002	-2.561293e-001	8.048002e-001	-2.791744e-001	7.935534e-001	-2.518057e-001	1.563989e-001	-1.694379e-001
6634999771	-2.803566e-003	-2.599666e-001	7.855255e-001	-3.060483e-001	7.893974e-001	-2.936333e-001	1.326308e-001	-1.925951e-001
6684499769	-2.533056e-002	-2.602480e-001	7.486941e-001	-4.234691e-001	7.509009e-001	-4.087776e-001	1.018036e-001	-2.087731e-001
6733999767	-4.601328e-002	-2.550052e-001	7.011042e-001	-4.401711e-001	7.097084e-001	-4.270342e-001	7.058185e-002	-2.194110e-001
6783499765	-6.653731e-002	-2.460319e-001	6.484258e-001	-5.604659e-001	6.554578e-001	-5.475454e-001	3.541318e-002	-2.219250e-001
6832999763	-8.121785e-002	-2.356339e-001	6.095616e-001	-5.668745e-001	6.203173e-001	-5.649077e-001	3.652319e-003	-2.182154e-001
6882499762	-9.434056e-002	-2.209289e-001	5.274005e-001	-6.573805e-001	5.369666e-001	-6.448464e-001	-2.689177e-002	-2.075452e-001
6931999760	-1.054965e-001	-2.072757e-001	4.822258e-001	-6.808263e-001	4.940723e-001	-6.872800e-001	-5.603846e-002	-1.927524e-001
6981499758	-1.127952e-001	-1.912335e-001	4.065439e-001	-7.441268e-001	4.132581e-001	-7.368660e-001	-8.087379e-002	-1.714157e-001
7030999756	-1.178227e-001	-1.756621e-001	3.370587e-001	-7.539120e-001	3.460312e-001	-7.599614e-001	-1.008472e-001	-1.459732e-001
7080499755	-1.183287e-001	-1.593107e-001	2.594062e-001	-8.143843e-001	2.622419e-001	-8.182640e-001	-1.164932e-001	-1.166169e-001
7129999753	-1.152646e-001	-1.446490e-001	1.866750e-001	-8.096936e-001	1.940745e-001	-8.060700e-001	-1.219884e-001	-8.563165e-002
7179499751	-1.074721e-001	-1.299998e-001	9.868593e-002	-8.449171e-001	9.842164e-002	-8.555353e-001	-1.217246e-001	-5.229463e-002
7228999749	-9.756050e-002	-1.211125e-001	1.956437e-002	-8.416501e-001	2.149018e-002	-8.350404e-001	-1.127960e-001	-2.081211e-002
7278499748	-8.345005e-002	-1.129973e-001	-6.570376e-002	-8.480271e-001	-5.725416e-002	-8.496810e-001	-9.871579e-002	7.602889e-003
7327999746	-6.913002e-002	-1.093572e-001	-1.526727e-001	-8.341357e-001	-1.606817e-001	-8.322174e-001	-7.678298e-002	3.352249e-002
7377499744	-5.417678e-002	-1.094111e-001	-2.365125e-001	-8.156001e-001	-2.156495e-001	-8.146485e-001	-5.077011e-002	5.276229e-002
7426999742	-4.014747e-002	-1.161032e-001	-3.199212e-001	-7.917318e-001	-3.290664e-001	-7.876798e-001	-1.862339e-002	6.820458e-002
7476499741	-2.838894e-002	-1.248739e-001	-3.972689e-001	-7.457349e-001	-3.835435e-001	-7.481346e-001	1.486788e-002	7.359699e-002
7525999739	-1.847515e-002	-1.381153e-001	-4.743265e-001	-7.058959e-001	-4.658466e-001	-7.088614e-001	5.066359e-002	7.104718e-002
7575499737	-1.075896e-002	-1.546134e-001	-5.458245e-001	-6.452885e-001	-5.405085e-001	-6.421782e-001	8.734185e-002	6.043292e-002
7624999735	-8.006897e-003	-1.747411e-001	-6.009108e-001	-5.924915e-001	-5.880014e-001	-6.034068e-001	1.195046e-001	4.364860e-002
7674499733	-6.965815e-003	-1.962150e-001	-6.653021e-001	-5.053345e-001	-6.564853e-001	-5.119517e-001	1.498718e-001	1.562597e-002
7723999732	-1.264388e-002	-2.173575e-001	-7.005109e-001	-4.535683e-001	-6.969635e-001	-4.620767e-001	1.744786e-001	-1.453906e-002
